(1736520237.184182) can0 305#05670007ED00
(1736520237.184726) can0 174#F57F0000E1800800
(1736520237.184957) can0 178#FA7F00003C81082D
(1736520237.185201) can0 17C#00000928D79E0889
(1736520237.186120) can0 310#FF306B038A020000
(1736520237.188705) can0 101#F038316400000080
(1736520237.191131) can0 310#FF306B038B020000
(1736520237.191376) can0 110#0C00000000000000
(1736520237.191617) can0 113#1200000036000000
(1736520237.192618) can0 205#BE004E820A000000
(1736520237.192835) can0 210#70805F0F00200000
(1736520237.194276) can0 305#05670007DE00
(1736520237.194768) can0 174#EC7F0000E48009A2
(1736520237.194993) can0 178#F27F00002F810976
(1736520237.195257) can0 17C#00000928D99E099D
(1736520237.196137) can0 310#FF306B038A020000
(1736520237.199616) can0 101#F038316400000080
(1736520237.201135) can0 310#FF306B038A020000
(1736520237.201403) can0 110#0C00000000000000
(1736520237.201643) can0 111#C001BD016B006B01
(1736520237.201859) can0 112#7A01760174018101
(1736520237.202102) can0 113#1200000036000000
(1736520237.202608) can0 205#BE004E820A000000
(1736520237.202864) can0 210#70805F0F00200000
(1736520237.204169) can0 305#05670007CF00
(1736520237.204702) can0 174#E77F0000E6800AB3
(1736520237.204951) can0 178#E77F012127810A6D
(1736520237.205200) can0 17C#00000928DA9E0A36
(1736520237.206181) can0 310#FF306B038A020000
(1736520237.210482) can0 101#F038316400000080
(1736520237.211350) can0 110#0C00000000000000
(1736520237.211590) can0 113#1200000036000000
(1736520237.211831) can0 310#FF306B038A020000
(1736520237.212635) can0 210#70805F0F00200000
(1736520237.212876) can0 205#BE004E820A000000
(1736520237.214156) can0 305#056700073000
(1736520237.214687) can0 174#E47F0000EF800BCA
(1736520237.214943) can0 178#DC7F022824810BA0
(1736520237.215200) can0 17C#00000928DA9E0B2B
(1736520237.216140) can0 310#FF306B038A020000
(1736520237.221191) can0 310#FF306B038A020000
(1736520237.221378) can0 101#F038316400000080
(1736520237.221426) can0 110#0C00000000000000
(1736520237.221667) can0 113#1200000036000000
(1736520237.222661) can0 210#70805F0F00200000
(1736520237.222915) can0 205#BE004E820A000000
(1736520237.224158) can0 305#056700072100
(1736520237.224712) can0 174#E77F0000F7800C6A
(1736520237.224954) can0 178#D67F03322A810C66
(1736520237.225185) can0 17C#00000928D79E0CFD
(1736520237.226176) can0 310#FF306B038A020000
(1736520237.231239) can0 310#FF306B038A020000
(1736520237.231489) can0 110#0C00000000000000
(1736520237.231644) can0 113#1200000036000000
(1736520237.232511) can0 101#F038316400000080
(1736520237.232615) can0 210#70805F0F00200000
(1736520237.233008) can0 205#BE004E820A000000
(1736520237.234169) can0 305#056700071200
(1736520237.234714) can0 174#EF7F0000FA800D20
(1736520237.234989) can0 178#DC7F042039810D8E
(1736520237.235186) can0 17C#00000928D79E0DE0
(1736520237.236156) can0 310#FF306B038A020000
(1736520237.241151) can0 310#FF306B038A020000
(1736520237.241413) can0 110#0C00000000000000
(1736520237.241658) can0 113#1200000036000000
(1736520237.242609) can0 210#70805F0F00200000
(1736520237.242891) can0 205#BE004E820A000000
(1736520237.243415) can0 101#F038316400000080
(1736520237.244325) can0 305#056700070300
(1736520237.244708) can0 174#F27F0000EF800EC9
(1736520237.244951) can0 178#EC7F052343810EE8
(1736520237.245243) can0 17C#00000928D49E0E4B
(1736520237.246234) can0 310#FF306B0389020000
(1736520237.251253) can0 310#FF306B0389020000
(1736520237.251439) can0 110#0C00000000000000
(1736520237.251667) can0 113#1200000036000000
(1736520237.252645) can0 210#70805F0F00200000
(1736520237.252892) can0 205#BE004E820A000000
(1736520237.254146) can0 305#056700077400
(1736520237.254292) can0 101#F038316400000080
(1736520237.254724) can0 174#EF7F0000E3800F81
(1736520237.255028) can0 178#FA7F063248810F19
(1736520237.255413) can0 17C#00000928CC9E0F42
(1736520237.256187) can0 310#FF306B0389020000
(1736520237.261220) can0 310#FF306B0389020000
(1736520237.261479) can0 110#0C00000000000000
(1736520237.261679) can0 113#1200000036000000
(1736520237.262608) can0 210#70805F0F00200000
(1736520237.262890) can0 205#BE004E820A000000
(1736520237.264177) can0 305#056700076500
(1736520237.264704) can0 174#EF7F0000E380003A
(1736520237.264969) can0 178#068007214B8100C0
(1736520237.265184) can0 17C#00000928CE9E00FA
(1736520237.265316) can0 101#F038316400000080
(1736520237.266182) can0 310#FF306B0389020000
(1736520237.267765) can0 206#60CD092802000200
(1736520237.271163) can0 113#1200000036000000
(1736520237.271415) can0 110#0C00000000000000
(1736520237.271657) can0 310#FF306B038A020000
(1736520237.272597) can0 210#70805F0F00200000
(1736520237.272891) can0 205#C5005C720B000000
(1736520237.274156) can0 305#056700075600
(1736520237.274709) can0 174#EA7F0000EC800195
(1736520237.274956) can0 178#068008234381018A
(1736520237.275171) can0 17C#00000928D79E017C
(1736520237.276177) can0 101#F038316400000080
(1736520237.276195) can0 310#FF306B038A020000
(1736520237.281170) can0 113#1200000036000000
(1736520237.281399) can0 110#0C00000000000000
(1736520237.281654) can0 310#FF306B0389020000
(1736520237.282596) can0 210#7080630E00200000
(1736520237.282875) can0 205#CC006A520C000000
(1736520237.284175) can0 305#056700074700
(1736520237.284700) can0 174#EA7F0000EF80023E
(1736520237.284968) can0 178#0680000031810261
(1736520237.285181) can0 17C#00000928D79E025B
(1736520237.286195) can0 310#FF306B0389020000
(1736520237.287065) can0 101#F038316400000080
(1736520237.291197) can0 113#1200000036000000
(1736520237.291435) can0 110#0C00000000000000
(1736520237.291653) can0 310#FF306B0389020000
(1736520237.292662) can0 210#7080660D00200000
(1736520237.292910) can0 205#CC006A520C000000
(1736520237.294176) can0 305#05670007B800
(1736520237.294712) can0 174#EA7F0000EA8003AA
(1736520237.294967) can0 178#0680012029810348
(1736520237.295209) can0 17C#00000928DA9E03C3
(1736520237.296193) can0 310#FF306B0389020000
(1736520237.297732) can0 101#F038316400000080
(1736520237.301197) can0 113#1200000036000000
(1736520237.301408) can0 110#0C00000000000000
(1736520237.301662) can0 111#D301CD0174006D01
(1736520237.301896) can0 112#78018E0183019201
(1736520237.302149) can0 310#FF306B0389020000
(1736520237.302661) can0 210#7080660D00200000
(1736520237.302937) can0 205#CC006A520C000000
(1736520237.304158) can0 305#05670007A900
(1736520237.304792) can0 174#EA7F0000E780047C
(1736520237.305069) can0 178#0B800000278104D4
(1736520237.305249) can0 17C#00000928DA9E0490
(1736520237.306307) can0 310#FF306B038A020000
(1736520237.308659) can0 101#F038316400000080
(1736520237.311071) can0 113#1200000036000000
(1736520237.311348) can0 110#0C00000000000000
(1736520237.311577) can0 310#FF306B0389020000
(1736520237.312617) can0 210#7080660D00200000
(1736520237.312900) can0 205#CC006A520C000000
(1736520237.314251) can0 305#056700079A00
(1736520237.314796) can0 174#EF7F0000EE8005D6
(1736520237.315041) can0 178#0B80010224810508
(1736520237.315239) can0 17C#00000928D49E0584
(1736520237.316362) can0 310#FF306B038A020000
(1736520237.319801) can0 101#F038316400000080
(1736520237.321095) can0 113#1200000036000000
(1736520237.321352) can0 110#0C00000000000000
(1736520237.321531) can0 310#FF306B038A020000
(1736520237.322650) can0 210#7080660D00200000
(1736520237.322985) can0 205#CC006A520C000000
(1736520237.324222) can0 305#056700078B00
(1736520237.324715) can0 174#F57F0000F58006B8
(1736520237.324978) can0 178#0080020F2F81066B
(1736520237.325245) can0 17C#00000928D19E062A
(1736520237.326328) can0 310#FF306B0389020000
(1736520237.330769) can0 101#F038316400000080
(1736520237.331154) can0 113#1200000036000000
(1736520237.331398) can0 110#0C00000000000000
(1736520237.331748) can0 310#FF306B0389020000
(1736520237.332652) can0 210#7080660D00200000
(1736520237.333047) can0 205#CC006A520C000000
(1736520237.334250) can0 305#05670007FC00
(1736520237.334783) can0 174#F57F0000F78007A6
(1736520237.334994) can0 178#F27F0313458107AE
(1736520237.335236) can0 17C#00000928D69E07BD
(1736520237.336311) can0 310#FF306B0389020000
(1736520237.340999) can0 113#1200000036000000
(1736520237.341349) can0 110#0C00000000000000
(1736520237.341532) can0 310#FF306B0389020000
(1736520237.342121) can0 101#F038316400000080
(1736520237.342584) can0 210#7080660D00200000
(1736520237.343104) can0 205#CC006A520C000000
(1736520237.344226) can0 305#05670007ED00
(1736520237.344789) can0 174#F57F0000F4800891
(1736520237.345033) can0 178#EC7F04034E810803
(1736520237.345249) can0 17C#00000928D69E0806
(1736520237.346392) can0 310#FF306B0389020000
(1736520237.351065) can0 113#1200000036000000
(1736520237.351346) can0 110#0C00000000000000
(1736520237.351518) can0 310#FF306B0389020000
(1736520237.352612) can0 210#7080660D00200000
(1736520237.352964) can0 101#F038316400000080
(1736520237.353095) can0 205#CC006A520C000000
(1736520237.354208) can0 305#05670007DE00
(1736520237.354780) can0 174#FD7F0000EF8009C6
(1736520237.354952) can0 178#E47F05084A810986
(1736520237.355240) can0 17C#00000928D69E091B
(1736520237.356396) can0 310#FF306B0389020000
(1736520237.361056) can0 113#1200000036000000
(1736520237.361212) can0 110#0C00000000000000
(1736520237.361496) can0 310#FF306B0389020000
(1736520237.362637) can0 210#7080660D00200000
(1736520237.363102) can0 205#CC006A520C000000
(1736520237.363956) can0 101#F038316400000080
(1736520237.364162) can0 305#05670007CF00
(1736520237.364707) can0 174#00800000E9800AA2
(1736520237.365231) can0 178#E17F062F45810A13
(1736520237.365493) can0 17C#00000928DC9E0A33
(1736520237.366387) can0 310#FF306B0389020000
(1736520237.368111) can0 206#76CD102802000200
(1736520237.370951) can0 113#1200000036000000
(1736520237.371236) can0 110#0C00000000000000
(1736520237.371539) can0 310#FF306B0389020000
(1736520237.372650) can0 210#7080660D00200000
(1736520237.373234) can0 205#C8006A620B000000
(1736520237.374160) can0 305#056700073000
(1736520237.374701) can0 174#00800000E3800BB0
(1736520237.374900) can0 101#F038316400000080
(1736520237.374970) can0 178#EA7F07053F810BE7
(1736520237.375444) can0 17C#00000928DF9E0BA2
(1736520237.376339) can0 310#FF306B0389020000
(1736520237.380972) can0 113#1200000036000000
(1736520237.381203) can0 110#0C00000000000000
(1736520237.381391) can0 310#FF306B0389020000
(1736520237.382537) can0 210#7080640E00200000
(1736520237.383203) can0 205#C5006A820A000000
(1736520237.384232) can0 305#056700072100
(1736520237.384713) can0 174#00800000DC800C4D
(1736520237.384955) can0 178#F27F080E39810C80
(1736520237.385223) can0 17C#00000928DF9E0CF1
(1736520237.385755) can0 101#F038316400000080
(1736520237.386389) can0 310#FF306B0389020000
(1736520237.390983) can0 113#1200000036000000
(1736520237.391225) can0 110#0C00000000000000
(1736520237.391418) can0 310#FF306B0389020000
(1736520237.392699) can0 210#7080630E00200000
(1736520237.393213) can0 205#C5006A820A000000
(1736520237.394235) can0 305#056700071200
(1736520237.394736) can0 174#00800000D6800D5F
(1736520237.394976) can0 178#F57F090735810D72
(1736520237.395257) can0 17C#00000928E59E0DCB
(1736520237.396290) can0 310#FF306B0389020000
(1736520237.396699) can0 101#F038316400000080
(1736520237.400931) can0 113#1200000036000000
(1736520237.401172) can0 110#0C00000000000000
(1736520237.401372) can0 111#C701C10173007B01
(1736520237.401608) can0 112#8A0177018B016601
(1736520237.401842) can0 310#FF306B0388020000
(1736520237.402628) can0 210#7080630E00200000
(1736520237.403255) can0 205#C5006A820A000000
(1736520237.404142) can0 305#056700070300
(1736520237.404711) can0 174#FA7F0000D3800E39
(1736520237.404973) can0 178#EC7F0A0932810EA2
(1736520237.405210) can0 17C#00000928D99E0ECE
(1736520237.406316) can0 310#FF306B0388020000
(1736520237.407544) can0 101#F038316400000080
(1736520237.410827) can0 113#1200000036000000
(1736520237.411063) can0 110#0C00000000000000
(1736520237.411309) can0 310#FF306B0388020000
(1736520237.412551) can0 210#7080630E00200000
(1736520237.413204) can0 205#C5006A820A000000
(1736520237.414180) can0 305#056700077400
(1736520237.414746) can0 174#EF7F0000D1800FAA
(1736520237.414977) can0 178#E17F0B0E2F810F5A
(1736520237.415219) can0 17C#00000928BB9E0F80
(1736520237.416336) can0 310#FF306B0388020000
(1736520237.418589) can0 101#F038316400000080
(1736520237.420829) can0 113#1200000036000000
(1736520237.421045) can0 110#0C00000000000000
(1736520237.421366) can0 310#FF306B0388020000
(1736520237.422516) can0 210#7080630E00200000
(1736520237.423224) can0 205#C5006A820A000000
(1736520237.424141) can0 305#056700076500
(1736520237.424709) can0 174#EA7F0000D88000A6
(1736520237.424975) can0 178#DE7F0C0535810051
(1736520237.425182) can0 17C#00000928AD9E0026
(1736520237.426369) can0 310#FF306B0388020000
(1736520237.429377) can0 101#F038316400000080
(1736520237.430763) can0 113#1200000036000000
(1736520237.431072) can0 110#0C00000000000000
(1736520237.431420) can0 310#FF306B0389020000
(1736520237.432532) can0 210#7080630E00200000
(1736520237.433318) can0 205#C5006A820A000000
(1736520237.434162) can0 305#056700075600
(1736520237.434708) can0 174#E77F0000E18001F6
(1736520237.434934) can0 178#EA7F0D053D810195
(1736520237.435253) can0 17C#00000928A79E0134
(1736520237.436348) can0 310#FF306B0388020000
(1736520237.440190) can0 101#F038316400000080
(1736520237.440739) can0 113#1200000036000000
(1736520237.441370) can0 310#FF306B0388020000
(1736520237.442523) can0 210#7080630E00200000
(1736520237.443308) can0 205#C5006A820A000000
(1736520237.444198) can0 305#056700074700
(1736520237.444796) can0 174#E77F0000E98002DD
(1736520237.444957) can0 178#EF7F0E123F8102EA
(1736520237.445191) can0 17C#00000928AD9E021C
(1736520237.446460) can0 310#FF306B0388020000
(1736520237.450714) can0 113#1200000036000000
(1736520237.450980) can0 110#0C00000000000000
(1736520237.451126) can0 101#F038316400000080
(1736520237.451515) can0 310#FF306B0388020000
(1736520237.452520) can0 210#7080630E00200000
(1736520237.453311) can0 205#C5006A820A000000
(1736520237.454114) can0 305#05670007B800
(1736520237.454704) can0 174#EA7F0000EE8003AC
(1736520237.454967) can0 178#EF7F0F093F81039E
(1736520237.455207) can0 17C#00000928C39E0358
(1736520237.456400) can0 310#FF306B0388020000
(1736520237.460755) can0 113#1200000036000000
(1736520237.460936) can0 110#0C00000000000000
(1736520237.461368) can0 310#FF306B0388020000
(1736520237.462129) can0 101#F038316400000080
(1736520237.462554) can0 210#7080630E00200000
(1736520237.463344) can0 205#C5006A820A000000
(1736520237.464119) can0 305#05670007A900
(1736520237.464696) can0 174#EA7F0000F28004ED
(1736520237.464982) can0 178#DE7F000E3C810442
(1736520237.465208) can0 17C#00000928D79E0415
(1736520237.466412) can0 310#FF306B0388020000
(1736520237.468397) can0 206#8CCD162802000200
(1736520237.470692) can0 113#1200000036000000
(1736520237.470931) can0 110#0C00000000000000
(1736520237.471366) can0 310#FF306C0388020000
(1736520237.472501) can0 210#7080630E00200000
(1736520237.472890) can0 101#F038316400000080
(1736520237.473399) can0 205#C5006A820A000000
(1736520237.474146) can0 305#056700079A00
(1736520237.474714) can0 174#E47F0000F180057D
(1736520237.474963) can0 178#D97F01073181053F
(1736520237.475207) can0 17C#00000928DC9E0588
(1736520237.476396) can0 310#FF306C0388020000
(1736520237.480871) can0 113#1200000036000000
(1736520237.480894) can0 110#0C00000000000000
(1736520237.481372) can0 310#FF306C0388020000
(1736520237.482498) can0 210#7080630E00200000
(1736520237.483396) can0 205#C5006A820A000000
(1736520237.483795) can0 101#F038316400000080
(1736520237.484210) can0 305#056700078B00
(1736520237.484742) can0 174#E47F0000EE8006C4
(1736520237.484979) can0 178#D97F022F2781066D
(1736520237.485300) can0 17C#00000928E19E0602
(1736520237.486383) can0 310#FF306C0387020000
(1736520237.490617) can0 113#1200000036000000
(1736520237.490874) can0 110#0C00000000000000
(1736520237.491369) can0 310#FF306C0388020000
(1736520237.492498) can0 210#7080630E00200000
(1736520237.493490) can0 205#C5006A820A000000
(1736520237.494123) can0 305#05670007FC00
(1736520237.494629) can0 101#F038316400000080
(1736520237.494697) can0 174#E77F0000F18007A0
(1736520237.495128) can0 178#DE7F0307248107CE
(1736520237.495383) can0 17C#00000928E59E0719
(1736520237.496418) can0 310#FF306C0388020000
(1736520237.500631) can0 113#1200000036000000
(1736520237.500859) can0 110#0C00000000000000
(1736520237.501102) can0 111#C001BD0172007A01
(1736520237.501332) can0 112#7F01690182016901
(1736520237.501565) can0 310#FF306C0388020000
(1736520237.502488) can0 210#7080630E00200000
(1736520237.503434) can0 205#C5006A820A000000
(1736520237.504131) can0 305#05670007ED00
(1736520237.504685) can0 174#EF7F0000F4800840
(1736520237.504980) can0 178#DE7F040D268108C6
(1736520237.505210) can0 17C#00000928D79E0889
(1736520237.505666) can0 101#F038316400000080
(1736520237.506550) can0 310#FF306C0388020000
(1736520237.510639) can0 113#1200000036000000
(1736520237.510910) can0 110#0C00000000000000
(1736520237.511444) can0 310#FF306C0388020000
(1736520237.512575) can0 210#7080630E00200000
(1736520237.513542) can0 205#C5006A820A000000
(1736520237.514199) can0 305#05670007DE00
(1736520237.514796) can0 174#F87F0000F18009E3
(1736520237.515031) can0 178#E77F05022C81098F
(1736520237.515260) can0 17C#00000928C89E090A
(1736520237.516414) can0 310#FF306C0388020000
(1736520237.516440) can0 101#F038316400000080
(1736520237.520580) can0 113#1200000036000000
(1736520237.520822) can0 110#0C00000000000000
(1736520237.521422) can0 310#FF306C0388020000
(1736520237.522502) can0 210#7080630E00200000
(1736520237.523498) can0 205#C5006A820A000000
(1736520237.524094) can0 305#05670007CF00
(1736520237.524709) can0 174#00800000F1800AB6
(1736520237.524980) can0 178#F57F060837810A36
(1736520237.525224) can0 17C#00000928D19E0AB6
(1736520237.526425) can0 310#FF306C0387020000
(1736520237.527401) can0 101#F038316400000080
(1736520237.530555) can0 113#1200000036000000
(1736520237.530768) can0 110#0C00000000000000
(1736520237.531448) can0 310#FF306C0388020000
(1736520237.532472) can0 210#7080630E00200000
(1736520237.533533) can0 205#C5006A820A000000
(1736520237.534125) can0 305#056700073000
(1736520237.534733) can0 174#FA7F0000EF800B72
(1736520237.535008) can0 178#0080000039810B4B
(1736520237.535259) can0 17C#00000928ED9E0B89
(1736520237.536531) can0 310#FF306C0388020000
(1736520237.538313) can0 101#F038316400000080
(1736520237.540458) can0 113#1200000036000000
(1736520237.540743) can0 110#0C00000000000000
(1736520237.541435) can0 310#FF306C0388020000
(1736520237.542460) can0 210#7080630E00200000
(1736520237.543525) can0 205#C5006A820A000000
(1736520237.544092) can0 305#056700072100
(1736520237.544701) can0 174#EF7F0000EE800C23
(1736520237.544965) can0 178#0380012831810C4F
(1736520237.545207) can0 17C#00000928089F0C8F
(1736520237.546446) can0 310#FF306C0388020000
(1736520237.549347) can0 101#F038316400000080
(1736520237.550522) can0 113#1200000036000000
(1736520237.550742) can0 110#0C00000000000000
(1736520237.551462) can0 310#FF306C0388020000
(1736520237.552437) can0 210#7080630E00200000
(1736520237.553565) can0 205#C5006A820A000000
(1736520237.554090) can0 305#056700071200
(1736520237.554697) can0 174#EC7F0000EF800D56
(1736520237.554965) can0 178#088002202F810D54
(1736520237.555206) can0 17C#000009280C9F0D94
(1736520237.556447) can0 310#FF306C0387020000
(1736520237.560158) can0 101#F038316400000080
(1736520237.560616) can0 113#1200000036000000
(1736520237.560819) can0 110#0C00000000000000
(1736520237.561470) can0 310#FF306C0387020000
(1736520237.562442) can0 210#7080630E00200000
(1736520237.563683) can0 205#C5006A820A000000
(1736520237.564113) can0 305#056700070300
(1736520237.564782) can0 174#EF7F0000F2800E0B
(1736520237.565022) can0 178#068003212F810E85
(1736520237.565215) can0 17C#00000928FD9E0EF8
(1736520237.566461) can0 310#FF306C0387020000
(1736520237.568539) can0 206#A2CD1C2802000200
(1736520237.570400) can0 113#1200000036000000
(1736520237.570670) can0 110#0C00000000000000
(1736520237.571037) can0 101#F038316400000080
(1736520237.571469) can0 310#FF306C0387020000
(1736520237.572471) can0 210#7080630E00200000
(1736520237.573691) can0 205#C5006A820A000000
(1736520237.574140) can0 305#056700077400
(1736520237.574956) can0 174#FA7F0000F4800F9E
(1736520237.574989) can0 178#038004202F810F3A
(1736520237.575244) can0 17C#00000928E79E0FF2
(1736520237.576610) can0 310#FF306C0387020000
(1736520237.580468) can0 113#1200000036000000
(1736520237.580674) can0 110#0C00000000000000
(1736520237.581489) can0 310#FF306C0387020000
(1736520237.581869) can0 101#F038316400000080
(1736520237.582450) can0 210#7080630E00200000
(1736520237.583674) can0 205#C5006A820A000000
(1736520237.584093) can0 305#056700076500
(1736520237.584705) can0 174#00800000F88000E7
(1736520237.584979) can0 178#008005292E810082
(1736520237.585207) can0 17C#00000928D19E0064
(1736520237.586621) can0 310#FF306C0387020000
(1736520237.590427) can0 113#1200000036000000
(1736520237.590652) can0 110#0C00000000000000
(1736520237.591487) can0 310#FF306C0387020000
(1736520237.592457) can0 210#7080630E00200000
(1736520237.592919) can0 101#F038316400000080
(1736520237.593810) can0 205#C5006A820A000000
(1736520237.594110) can0 305#056700075600
(1736520237.594697) can0 174#03800000FD800194
(1736520237.594964) can0 178#F87F06252681018D
(1736520237.595206) can0 17C#00000928BE9E01AF
(1736520237.596525) can0 310#FF306C0387020000
(1736520237.600404) can0 113#1200000036000000
(1736520237.600654) can0 110#0C00000000000000
(1736520237.600840) can0 111#C201BE016C007701
(1736520237.601082) can0 112#73017D017D017401
(1736520237.601486) can0 310#FF306C0387020000
(1736520237.602433) can0 210#7080630E00200000
(1736520237.603698) can0 205#C5006A820A000000
(1736520237.603953) can0 101#F038316400000080
(1736520237.604109) can0 305#056700074700
(1736520237.604987) can0 174#00800000F780025B
(1736520237.605203) can0 178#F27F0728188102C6
(1736520237.605489) can0 17C#00000928B79E020B
(1736520237.606524) can0 310#FF306C0387020000
(1736520237.610410) can0 113#1200000036000000
(1736520237.610666) can0 110#0C00000000000000
(1736520237.611514) can0 310#FF306C0387020000
(1736520237.612442) can0 210#7080630E00200000
(1736520237.613782) can0 205#C5006A820A000000
(1736520237.614078) can0 305#05670007B800
(1736520237.614698) can0 174#FD7F0000EA80039D
(1736520237.614958) can0 178#FA7F082318810353
(1736520237.615183) can0 17C#00000928BE9E0395
(1736520237.615281) can0 101#F038316400000080
(1736520237.616516) can0 310#FF306C0387020000
(1736520237.620395) can0 113#1200000036000000
(1736520237.620567) can0 110#0C00000000000000
(1736520237.621604) can0 310#FF306C0387020000
(1736520237.622491) can0 210#7080630E00200000
(1736520237.623841) can0 205#C5006A820A000000
(1736520237.624126) can0 305#05670007A900
(1736520237.624781) can0 174#F87F0000E48004F3
(1736520237.624982) can0 178#0B8009201E810428
(1736520237.625255) can0 17C#00000928D39E0413
(1736520237.626314) can0 101#F038316400000080
(1736520237.626675) can0 310#FF306C0387020000
(1736520237.630427) can0 113#1200000036000000
(1736520237.630528) can0 110#0C00000000000000
(1736520237.631544) can0 310#FF306C0387020000
(1736520237.632444) can0 210#7080630E00200000
(1736520237.633797) can0 205#C5006A820A000000
(1736520237.634131) can0 305#056700079A00
(1736520237.634777) can0 174#EF7F0000E68005DA
(1736520237.634972) can0 178#14800A252481059A
(1736520237.635256) can0 17C#00000928E79E0520
(1736520237.636541) can0 310#FF306C0387020000
(1736520237.637146) can0 101#F038316400000080
(1736520237.640363) can0 113#1200000036000000
(1736520237.640529) can0 110#0C00000000000000
(1736520237.641621) can0 310#FF306C0386020000
(1736520237.642492) can0 210#7080630E00200000
(1736520237.643827) can0 205#C5006A820A000000
(1736520237.644058) can0 305#056700078B00
(1736520237.644683) can0 174#EC7F0000E680061A
(1736520237.645085) can0 178#0E800B242E810694
(1736520237.645223) can0 17C#00000928EA9E0682
(1736520237.646619) can0 310#FF306C0386020000
(1736520237.647991) can0 101#F038316400000080
(1736520237.650269) can0 113#1200000036000000
(1736520237.650566) can0 110#0C00000000000000
(1736520237.651646) can0 310#FF306C0386020000
(1736520237.652491) can0 210#7080630E00200000
(1736520237.653910) can0 205#C5006A820A000000
(1736520237.654098) can0 305#05670007FC00
(1736520237.654713) can0 174#EF7F0000E780076F
(1736520237.654988) can0 178#FD7F000039810791
(1736520237.655192) can0 17C#00000928E19E071F
(1736520237.656552) can0 310#FF306C0386020000
(1736520237.658707) can0 101#F038316400000080
(1736520237.660232) can0 113#1200000036000000
(1736520237.660541) can0 110#0C00000000000000
(1736520237.661650) can0 310#FF306C0386020000
(1736520237.662522) can0 210#7080630E00200000
(1736520237.663936) can0 205#C5006A820A000000
(1736520237.664156) can0 305#05670007ED00
(1736520237.664792) can0 174#EA7F0000F18008FD
(1736520237.665086) can0 178#EC7F0000398108CE
(1736520237.665270) can0 17C#00000928D19E088C
(1736520237.666685) can0 310#FF306C0386020000
(1736520237.668830) can0 206#B8CD222802000200
(1736520237.669757) can0 101#F038316400000080
(1736520237.670163) can0 113#1200000036000000
(1736520237.671563) can0 310#FF306C0386020000
(1736520237.672384) can0 210#7080630E00200000
(1736520237.673979) can0 205#C8006A720B000000
(1736520237.674298) can0 305#05670007DE00
(1736520237.674696) can0 174#EA7F0000F58009E6
(1736520237.674964) can0 178#E47F00FF2F8109BA
(1736520237.675205) can0 17C#00000928C69E0903
(1736520237.676589) can0 310#FF306C0386020000
(1736520237.680152) can0 113#1200000036000000
(1736520237.680407) can0 110#0C00000000000000
(1736520237.680622) can0 101#F038316400000080
(1736520237.681575) can0 310#FF306C0386020000
(1736520237.682491) can0 210#7080640E00200000
(1736520237.684051) can0 205#CC006A520C000000
(1736520237.684210) can0 305#05670007CF00
(1736520237.684734) can0 174#EF7F0000F7800AF6
(1736520237.684990) can0 178#EC7F00002C810A65
(1736520237.685206) can0 17C#00000928C19E0AAE
(1736520237.686593) can0 310#FF306C0386020000
(1736520237.690138) can0 113#1200000036000000
(1736520237.690395) can0 110#0C00000000000000
(1736520237.691351) can0 101#F038316400000080
(1736520237.691751) can0 310#FF306C0386020000
(1736520237.692474) can0 210#7080660D00200000
(1736520237.694062) can0 205#CC006A520C000000
(1736520237.694297) can0 305#056700073000
(1736520237.694780) can0 174#F57F0000F7800B3A
(1736520237.695037) can0 178#FA7F010629810B98
(1736520237.695245) can0 17C#00000928C09E0B3C
(1736520237.696677) can0 310#FF306C0386020000
(1736520237.700207) can0 113#1200000036000000
(1736520237.700438) can0 110#0C00000000000000
(1736520237.700671) can0 111#D301CC0175007101
(1736520237.700918) can0 112#8401940181017801
(1736520237.701567) can0 310#FF306C0386020000
(1736520237.702173) can0 101#F038316400000080
(1736520237.702394) can0 210#7080660D00200000
(1736520237.704056) can0 205#CC006A520C000000
(1736520237.704275) can0 305#056700072100
(1736520237.704776) can0 174#EF7F0000F7800CB8
(1736520237.704997) can0 178#088002202A810CC0
(1736520237.705242) can0 17C#00000928C19E0CE0
(1736520237.706673) can0 310#FF306C0386020000
(1736520237.710168) can0 113#1200000036000000
(1736520237.710396) can0 110#0C00000000000000
(1736520237.711642) can0 310#FF306C0386020000
(1736520237.712410) can0 210#7080660D00200000
(1736520237.713085) can0 101#F038316400000080
(1736520237.713996) can0 205#CC006A520C000000
(1736520237.714284) can0 305#056700071200
(1736520237.714729) can0 174#EF7F0000EE800D3E
(1736520237.714950) can0 178#0880032332810D19
(1736520237.715166) can0 17C#00000928CE9E0D7B
(1736520237.716601) can0 310#FF306C0386020000
(1736520237.720101) can0 113#1200000036000000
(1736520237.720330) can0 110#0C00000000000000
(1736520237.721601) can0 310#FF306C0386020000
(1736520237.722381) can0 210#7080660D00200000
(1736520237.723875) can0 101#F038316400000080
(1736520237.724015) can0 205#CC006A520C000000
(1736520237.724419) can0 305#056700070300
(1736520237.724964) can0 174#EC7F0000EA800EF8
(1736520237.725194) can0 178#0380042737810EC7
(1736520237.725487) can0 17C#00000928D99E0ECE
(1736520237.726601) can0 310#FF306C0386020000
(1736520237.730152) can0 113#1200000036000000
(1736520237.730376) can0 110#0C00000000000000
(1736520237.731729) can0 310#FF306C0386020000
(1736520237.732461) can0 210#7080660D00200000
(1736520237.734082) can0 205#CC006A520C000000
(1736520237.734299) can0 305#056700077400
(1736520237.734721) can0 174#EA7F0000EC800F33
(1736520237.734941) can0 178#0080052032810F2A
(1736520237.734998) can0 101#F038316400000080
(1736520237.735297) can0 17C#00000928DE9E0F59
(1736520237.736630) can0 310#FF306C0386020000
(1736520237.740007) can0 113#1200000036000000
(1736520237.740284) can0 110#0C00000000000000
(1736520237.741627) can0 310#FF306C0386020000
(1736520237.742490) can0 210#7080660D00200000
(1736520237.744092) can0 205#CC006A520C000000
(1736520237.744329) can0 305#056700076500
(1736520237.744730) can0 174#EC7F0000E6800054
(1736520237.744993) can0 178#038006202E8100DA
(1736520237.745284) can0 17C#00000928E49E00C5
(1736520237.745967) can0 101#F038316400000080
(1736520237.746591) can0 310#FF306C0386020000
(1736520237.749968) can0 113#1200000036000000
(1736520237.750304) can0 110#0C00000000000000
(1736520237.751624) can0 310#FF306C0386020000
(1736520237.752388) can0 210#7080660D00200000
(1736520237.754115) can0 305#056700075600
(1736520237.754382) can0 205#CC006A520C000000
(1736520237.754687) can0 174#EF7F0000E3800127
(1736520237.754957) can0 178#068007202F810116
(1736520237.755200) can0 17C#00000928DA9E01F9
(1736520237.756605) can0 310#FF306C0386020000
(1736520237.756927) can0 101#F038316400000080
(1736520237.759966) can0 113#1200000036000000
(1736520237.760304) can0 110#0C00000000000000
(1736520237.761628) can0 310#FF306C0386020000
(1736520237.762363) can0 210#7080660D00200000
(1736520237.764032) can0 305#056700074700
(1736520237.764283) can0 205#CC006A520C000000
(1736520237.764681) can0 174#EF7F0000E1800203
(1736520237.764992) can0 178#038008242C8102BB
(1736520237.765191) can0 17C#00000928C19E0246
(1736520237.766648) can0 310#FF306C0386020000
(1736520237.767614) can0 101#F038316400000080
(1736520237.769138) can0 206#CECD292802000200
(1736520237.769935) can0 113#1200000036000000
(1736520237.770186) can0 110#0C00000000000000
(1736520237.771674) can0 310#FF306C0386020000
(1736520237.772362) can0 210#7080660D00200000
(1736520237.774095) can0 305#05670007B800
(1736520237.774319) can0 205#CC006A520C000000
(1736520237.774728) can0 174#F27F0000DF800360
(1736520237.774975) can0 178#038009202481038E
(1736520237.775191) can0 17C#00000928BD9E0319
(1736520237.776648) can0 310#FF306C0386020000
(1736520237.778387) can0 101#F038316400000080
(1736520237.779931) can0 113#1200000036000000
(1736520237.780159) can0 110#0C00000000000000
(1736520237.781688) can0 310#FF306C0386020000
(1736520237.782368) can0 210#7080660D00200000
(1736520237.784074) can0 305#05670007A900
(1736520237.784289) can0 205#CC006A520C000000
(1736520237.784711) can0 174#F57F0000E4800415
(1736520237.784957) can0 178#00800A2127810495
(1736520237.785200) can0 17C#00000928D39E0413
(1736520237.786653) can0 310#FF306C0386020000
(1736520237.789473) can0 101#F038316400000080
(1736520237.789890) can0 113#1200000036000000
(1736520237.791655) can0 310#FF306C0386020000
(1736520237.792361) can0 210#7080660D00200000
(1736520237.794045) can0 305#056700079A00
(1736520237.794283) can0 205#CC006A520C000000
(1736520237.794707) can0 174#F27F0000F1800517
(1736520237.794949) can0 178#F57F000029810561
(1736520237.795191) can0 17C#00000928EA9E05A5
(1736520237.796663) can0 310#FF306C0386020000
(1736520237.799886) can0 113#1200000037000000
(1736520237.800122) can0 110#0C00000000000000
(1736520237.800349) can0 101#F038316400000080
(1736520237.800398) can0 111#C501BD016A007201
(1736520237.800737) can0 112#8901900177016F01
(1736520237.801663) can0 310#FF306C0386020000
(1736520237.802341) can0 210#7080660D00200000
(1736520237.804019) can0 305#056700078B00
(1736520237.804296) can0 205#CC006A520C000000
(1736520237.804723) can0 174#EC7F0000F4800601
(1736520237.804965) can0 178#F27F012226810649
(1736520237.805204) can0 17C#00000928F29E0696
(1736520237.806671) can0 310#FF306C0386020000
(1736520237.809879) can0 113#1200000037000000
(1736520237.810163) can0 110#0C00000000000000
(1736520237.811403) can0 101#F038316400000080
(1736520237.811674) can0 310#FF306C0386020000
(1736520237.812601) can0 210#7080660D00200000
(1736520237.814127) can0 305#05670007FC00
(1736520237.814411) can0 205#CC006A520C000000
(1736520237.814746) can0 174#EA7F0000F1800746
(1736520237.815018) can0 178#FA7F02282781070C
(1736520237.815244) can0 17C#00000928EF9E0716
(1736520237.816755) can0 310#FF306C0386020000
(1736520237.819909) can0 113#1200000037000000
(1736520237.820181) can0 110#0C00000000000000
(1736520237.821756) can0 310#FF306C0386020000
(1736520237.822244) can0 101#F038316400000080
(1736520237.822315) can0 210#7080660D00200000
(1736520237.824123) can0 305#05670007ED00
(1736520237.824348) can0 205#CC006A520C000000
(1736520237.824778) can0 174#EF7F0000EE800857
(1736520237.825067) can0 178#0B8003202F8108B0
(1736520237.825309) can0 17C#00000928EA9E0824
(1736520237.826782) can0 310#FF306C0386020000
(1736520237.829881) can0 113#1200000037000000
(1736520237.830124) can0 110#0C00000000000000
(1736520237.831751) can0 310#FF306C0386020000
(1736520237.832410) can0 210#7080660D00200000
(1736520237.833060) can0 101#F038316400000080
(1736520237.834114) can0 305#05670007DE00
(1736520237.834384) can0 205#CC006A520C000000
(1736520237.834767) can0 174#EF7F0000EA80094C
(1736520237.835012) can0 178#1980042932810939
(1736520237.835243) can0 17C#00000928EA9E0939
(1736520237.836778) can0 310#FF306C0386020000
(1736520237.839851) can0 113#1200000037000000
(1736520237.840114) can0 110#0C00000000000000
(1736520237.841778) can0 310#FF306C0386020000
(1736520237.842410) can0 210#7080660D00200000
(1736520237.843668) can0 101#F038316400000080
(1736520237.844108) can0 305#05670007CF00
(1736520237.844589) can0 205#CC006A520C000000
(1736520237.844824) can0 174#EF7F0000E6800A61
(1736520237.845079) can0 178#1C80000034810AD1
(1736520237.845351) can0 17C#00000928E59E0A98
(1736520237.846770) can0 310#FF306C0386020000
(1736520237.849834) can0 113#1200000037000000
(1736520237.850085) can0 110#0C00000000000000
(1736520237.851702) can0 310#FF306C0386020000
(1736520237.852416) can0 210#7080660D00200000
(1736520237.854033) can0 305#056700073000
(1736520237.854323) can0 101#F038316400000080
(1736520237.854372) can0 205#CC006A520C000000
(1736520237.854795) can0 174#F57F0000E7800B22
(1736520237.855049) can0 178#148001253F810B6D
(1736520237.855441) can0 17C#00000928DA9E0B2B
(1736520237.856682) can0 310#FF306C0386020000
(1736520237.859728) can0 113#1200000037000000
(1736520237.860045) can0 110#0C00000000000000
(1736520237.861703) can0 310#FF306C0386020000
(1736520237.862313) can0 210#7080660D00200000
(1736520237.864018) can0 305#056700072100
(1736520237.864393) can0 205#CC006A520C000000
(1736520237.864694) can0 174#FD7F0000F1800CBE
(1736520237.864957) can0 178#0380022042810CA9
(1736520237.865066) can0 101#F038316400000080
(1736520237.865195) can0 17C#00000928C89E0C63
(1736520237.866810) can0 310#FF306C0386020000
(1736520237.869440) can0 206#E4CD302802000200
(1736520237.869756) can0 113#1200000037000000
(1736520237.870032) can0 110#0C00000000000000
(1736520237.871781) can0 310#FF306C0386020000
(1736520237.872419) can0 210#7080660D00200000
(1736520237.874052) can0 305#056700071200
(1736520237.874574) can0 205#CC006A520C000000
(1736520237.874825) can0 174#FD7F0000FC800D26
(1736520237.875109) can0 178#F87F032242810D6C
(1736520237.875346) can0 17C#00000928CB9E0DF2
(1736520237.875816) can0 101#F038316400000080
(1736520237.876798) can0 310#FF306C0386020000
(1736520237.879751) can0 113#1200000037000000
(1736520237.880018) can0 110#0C00000000000000
(1736520237.881835) can0 310#FF306C0386020000
(1736520237.882417) can0 210#7080660D00200000
(1736520237.884039) can0 305#056700070300
(1736520237.884465) can0 205#CC006A520C000000
(1736520237.884795) can0 174#F57F0000FD800E5C
(1736520237.884938) can0 178#F27F042F47810EEE
(1736520237.885204) can0 17C#00000928E19E0EEA
(1736520237.886527) can0 101#F038316400000080
(1736520237.886745) can0 310#FF306C0386020000
(1736520237.889720) can0 113#1200000037000000
(1736520237.889894) can0 110#0C00000000000000
(1736520237.891755) can0 310#FF306C0386020000
(1736520237.892303) can0 210#7080660D00200000
(1736520237.894014) can0 305#056700077400
(1736520237.894495) can0 205#CC006A520C000000
(1736520237.894738) can0 174#F27F0000FA800F45
(1736520237.894982) can0 178#FA7F051243810F6D
(1736520237.895198) can0 17C#00000928E59E0FF1
(1736520237.896732) can0 310#FF306C0386020000
(1736520237.897348) can0 101#F038316400000080
(1736520237.899644) can0 113#1200000037000000
(1736520237.899889) can0 110#0C00000000000000
(1736520237.900175) can0 111#D001CB0173007801
(1736520237.900378) can0 112#82017D018C018001
(1736520237.901828) can0 310#FF306C0386020000
(1736520237.902379) can0 210#7080660D00200000
(1736520237.904097) can0 305#056700076500
(1736520237.904620) can0 205#CC006A520C000000
(1736520237.904824) can0 174#EF7F0000F28000AD
(1736520237.905053) can0 178#0B8006243D8100D2
(1736520237.905341) can0 17C#00000928D79E0061
(1736520237.906741) can0 310#FF306C0386020000
(1736520237.908194) can0 101#F038316400000080
(1736520237.909599) can0 113#1200000037000000
(1736520237.909906) can0 110#0C00000000000000
(1736520237.911855) can0 310#FF306C0386020000
(1736520237.912385) can0 210#7080660D00200000
(1736520237.914130) can0 305#056700075600
(1736520237.914542) can0 205#CC006A520C000000
(1736520237.914763) can0 174#F27F0000EE8001FD
(1736520237.915067) can0 178#0E8007253F81010F
(1736520237.915352) can0 17C#00000928DE9E01FF
(1736520237.916755) can0 310#FF306C0386020000
(1736520237.918935) can0 101#F038316400000080
(1736520237.919840) can0 110#0C00000000000000
(1736520237.920146) can0 113#1200000037000000
(1736520237.921859) can0 310#FF306C0386020000
(1736520237.922379) can0 210#7080660D00200000
(1736520237.924074) can0 305#056700074700
(1736520237.924649) can0 205#CC006A520C000000
(1736520237.924917) can0 174#F57F0000EA800252
(1736520237.925056) can0 178#08800823398102EB
(1736520237.925297) can0 17C#00000928ED9E027C
(1736520237.926793) can0 310#FF306C0386020000
(1736520237.929552) can0 113#1200000037000000
(1736520237.929701) can0 101#F038316400000080
(1736520237.929805) can0 110#0C00000000000000
(1736520237.931813) can0 310#FF306C0386020000
(1736520237.932326) can0 210#7080660D00200000
(1736520237.934013) can0 305#05670007B800
(1736520237.934597) can0 205#CC006A520C000000
(1736520237.934853) can0 174#FA7F0000E980039F
(1736520237.935094) can0 178#068009272481034E
(1736520237.935325) can0 17C#00000928E19E036B
(1736520237.936816) can0 310#FF306C0386020000
(1736520237.939615) can0 113#1200000037000000
(1736520237.939824) can0 110#0C00000000000000
(1736520237.940432) can0 101#F038316400000080
(1736520237.941832) can0 310#FF306C0386020000
(1736520237.942385) can0 210#7080660D00200000
(1736520237.944056) can0 305#05670007A900
(1736520237.944697) can0 205#CC006A520C000000
(1736520237.944870) can0 174#F57F0000E6800416
(1736520237.945174) can0 178#038000002081048C
(1736520237.945399) can0 17C#00000928C89E048B
(1736520237.946846) can0 310#FF306C0386020000
(1736520237.949589) can0 113#1200000037000000
(1736520237.949823) can0 110#0C00000000000000
(1736520237.951200) can0 101#F038316400000080
(1736520237.951785) can0 310#FF306C0386020000
(1736520237.952332) can0 210#7080660D00200000
(1736520237.954085) can0 305#056700079A00
(1736520237.954738) can0 205#CC006A520C000000
(1736520237.954963) can0 174#EC7F0000E18005B7
(1736520237.955210) can0 178#FA7F01252E810544
(1736520237.955366) can0 17C#00000928B89E05DE
(1736520237.956893) can0 310#FF306C0386020000
(1736520237.959563) can0 113#1200000037000000
(1736520237.959811) can0 110#0C00000000000000
(1736520237.961838) can0 310#FF306C0386020000
(1736520237.961928) can0 101#F038316400000080
(1736520237.962377) can0 210#7080660D00200000
(1736520237.964050) can0 305#056700078B00
(1736520237.964746) can0 205#CC006A520C000000
(1736520237.964987) can0 174#EC7F0000DC80063D
(1736520237.965227) can0 178#EF7F02393581063F
(1736520237.965538) can0 17C#00000928B29E06F6
(1736520237.966840) can0 310#FF306C0386020000
(1736520237.969592) can0 113#1200000037000000
(1736520237.969777) can0 110#0C00000000000000
(1736520237.970041) can0 206#FACD372802000200
(1736520237.971908) can0 310#FF306C0386020000
(1736520237.972321) can0 210#7080660D00200000
(1736520237.972832) can0 101#F038316400000080
(1736520237.974057) can0 305#05670007FC00
(1736520237.974806) can0 174#EF7F0000D88007C1
(1736520237.975019) can0 178#EA7F0321358107C5
(1736520237.975247) can0 17C#00000928B59E0761
(1736520237.975541) can0 205#CC006A520C000000
(1736520237.976933) can0 310#FF306C0386020000
(1736520237.979521) can0 113#1200000037000000
(1736520237.979685) can0 110#0C00000000000000
(1736520237.982055) can0 310#FF306C0387020000
(1736520237.982354) can0 210#7080660D00200000
(1736520237.983797) can0 101#F038316400000080
(1736520237.984008) can0 305#05670007ED00
(1736520237.984836) can0 174#EF7F0000D98008F5
(1736520237.985116) can0 178#E17F042034810852
(1736520237.985339) can0 17C#00000928BE9E085A
(1736520237.985581) can0 205#CC006A520C000000
(1736520237.986860) can0 310#FF306C0386020000
(1736520237.989413) can0 113#1200000037000000
(1736520237.989723) can0 110#0C00000000000000
(1736520237.991941) can0 310#FF306C0387020000
(1736520237.992402) can0 210#7080660D00200000
(1736520237.994022) can0 305#05670007DE00
(1736520237.994638) can0 101#F038316400000080
(1736520237.994693) can0 174#F57F0000E380091E
(1736520237.995217) can0 178#D37F00002F810944
(1736520237.995218) can0 17C#00000928C59E098F
(1736520237.995669) can0 205#CC006A520C000000
(1736520237.996892) can0 310#FF306C0386020000
(1736520237.999401) can0 113#1200000037000000
(1736520237.999646) can0 110#0C00000000000000
(1736520237.999885) can0 111#CF01C80174007B01
(1736520238.000138) can0 112#730184017D017D01
(1736520238.001874) can0 310#FF306C0387020000
(1736520238.002305) can0 210#7080660D00200000
(1736520238.004004) can0 305#05670007CF00
(1736520238.004732) can0 174#FA7F0000EA800AE6
(1736520238.004988) can0 178#D07F000029810A81
(1736520238.005304) can0 17C#00000928C19E0AAE
(1736520238.005505) can0 205#CC006A520C000000
(1736520238.005876) can0 101#F038316400000080
(1736520238.006889) can0 310#FF306C0387020000
(1736520238.009381) can0 113#1200000037000000
(1736520238.009619) can0 110#0C00000000000000
(1736520238.011897) can0 310#FF306C0386020000
(1736520238.012306) can0 210#7080660D00200000
(1736520238.014004) can0 305#056700073000
(1736520238.014755) can0 174#F27F0000EC800B2C
(1736520238.015039) can0 178#CE7F01212C810B10
(1736520238.015203) can0 17C#00000928BE9E0B7D
(1736520238.015486) can0 205#CC006A520C000000
(1736520238.016893) can0 310#FF306C0387020000
(1736520238.016963) can0 101#F038316400000080
(1736520238.019351) can0 113#1200000037000000
(1736520238.019585) can0 110#0C00000000000000
(1736520238.021959) can0 310#FF306C0387020000
(1736520238.022377) can0 210#7080660D00200000
(1736520238.024056) can0 305#056700072100
(1736520238.024817) can0 174#E47F0000EA800C10
(1736520238.024969) can0 178#D07F02282C810C44
(1736520238.025242) can0 17C#00000928C59E0CE6
(1736520238.025500) can0 205#CC006A520C000000
(1736520238.026908) can0 310#FF306C0387020000
(1736520238.028415) can0 101#F038316400000080
(1736520238.029411) can0 113#1200000037000000
(1736520238.029663) can0 110#0C00000000000000
(1736520238.032004) can0 310#FF306C0387020000
(1736520238.032357) can0 210#7080660D00200000
(1736520238.034059) can0 305#056700071200
(1736520238.034810) can0 174#E47F0000E4800D04
(1736520238.035072) can0 178#D97F03322E810D21
(1736520238.035258) can0 17C#00000928C89E0D7E
(1736520238.035452) can0 205#CC006A520C000000
(1736520238.037010) can0 310#FF306C0387020000
(1736520238.039405) can0 113#1200000037000000
(1736520238.039436) can0 101#F038316400000080
(1736520238.039586) can0 110#0C00000000000000
(1736520238.042007) can0 310#FF306C0387020000
(1736520238.042352) can0 210#7080660D00200000
(1736520238.044028) can0 305#056700070300
(1736520238.044707) can0 174#EA7F0000E1800EAB
(1736520238.044952) can0 178#DE7F042037810E1A
(1736520238.045242) can0 17C#00000928C59E0EDC
(1736520238.045546) can0 205#CC006A520C000000
(1736520238.046994) can0 310#FF306C0387020000
(1736520238.049416) can0 113#1200000037000000
(1736520238.049535) can0 110#0C00000000000000
(1736520238.050375) can0 101#F038316400000080
(1736520238.052012) can0 310#FF306C0386020000
(1736520238.052341) can0 210#7080660D00200000
(1736520238.054065) can0 305#056700077400
(1736520238.054789) can0 174#EF7F0000E6800F08
(1736520238.055007) can0 178#E47F05233C810FE9
(1736520238.055229) can0 17C#00000928C09E0F48
(1736520238.055531) can0 205#CC006A520C000000
(1736520238.057008) can0 310#FF306C0387020000
(1736520238.059379) can0 113#1200000037000000
(1736520238.059582) can0 110#0C00000000000000
(1736520238.060983) can0 101#F038316400000080
(1736520238.061934) can0 310#FF306C0387020000
(1736520238.062291) can0 210#7080660D00200000
(1736520238.064063) can0 305#056700076500
(1736520238.064810) can0 174#F57F0000F18000F0
(1736520238.064995) can0 178#EA7F0632358100D6
(1736520238.065188) can0 17C#00000928BA9E00B4
(1736520238.065483) can0 205#CC006A520C000000
(1736520238.066967) can0 310#FF306C0387020000
(1736520238.069216) can0 113#1200000037000000
(1736520238.069514) can0 110#0C00000000000000
(1736520238.069889) can0 206#10CE3E2802000200
(1736520238.071947) can0 101#F038316400000080
(1736520238.071950) can0 310#FF306C0387020000
(1736520238.072361) can0 210#7080660D00200000
(1736520238.074025) can0 305#056700075600
(1736520238.074748) can0 174#F27F0000FD800169
(1736520238.074970) can0 178#EA7F0721328101B4
(1736520238.075202) can0 17C#00000928B59E012F
(1736520238.075483) can0 205#CF0078520C000000
(1736520238.076980) can0 310#FF306C0386020000
(1736520238.079196) can0 113#1200000037000000
(1736520238.079485) can0 110#0C00000000000000
(1736520238.081937) can0 310#FF306C0387020000
(1736520238.082198) can0 210#7080680D00200000
(1736520238.082874) can0 101#F038316400000080
(1736520238.083991) can0 305#056700074700
(1736520238.084701) can0 174#EF7F0000078102DA
(1736520238.084961) can0 178#EA7F08232F810255
(1736520238.085202) can0 17C#00000928C19E0246
(1736520238.085484) can0 205#D30086520C000000
(1736520238.086960) can0 310#FF306C0387020000
(1736520238.089176) can0 113#1200000037000000
(1736520238.089473) can0 110#0C00000000000000
(1736520238.091935) can0 310#FF306C0387020000
(1736520238.092183) can0 210#70806A0D00200000
(1736520238.093817) can0 101#F038316400000080
(1736520238.093982) can0 305#05670007B800
(1736520238.094872) can0 174#EF7F0000078103C7
(1736520238.095060) can0 178#EA7F00002E810340
(1736520238.095351) can0 17C#00000928CE9E03DD
(1736520238.095578) can0 205#D30086520C000000
(1736520238.096966) can0 310#FF306C0387020000
(1736520238.099147) can0 113#1200000037000000
(1736520238.099401) can0 110#0C00000000000000
(1736520238.099646) can0 111#C401BE0171006B01
(1736520238.099874) can0 112#6D01840176017601
(1736520238.101944) can0 310#FF306C0387020000
(1736520238.102294) can0 210#70806A0D00200000
(1736520238.103980) can0 305#05670007A900
(1736520238.104707) can0 174#F57F0000FF80048D
(1736520238.104748) can0 101#F038316400000080
(1736520238.105195) can0 178#EA7F01202E810433
(1736520238.105195) can0 17C#00000928D39E0413
(1736520238.105667) can0 205#D30086520C000000
(1736520238.106965) can0 310#FF306C0387020000
(1736520238.109096) can0 113#1200000037000000
(1736520238.109362) can0 110#0C00000000000000
(1736520238.111966) can0 310#FF306C0387020000
(1736520238.112277) can0 210#70806A0D00200000
(1736520238.113979) can0 305#056700079A00
(1736520238.114718) can0 174#00800000F4800584
(1736520238.114952) can0 178#EF7F0000318105A4
(1736520238.115282) can0 17C#00000928D79E0508
(1736520238.115521) can0 205#D30086520C000000
(1736520238.115772) can0 101#F038316400000080
(1736520238.117001) can0 310#FF306C0386020000
(1736520238.119107) can0 113#1200000037000000
(1736520238.119335) can0 110#0C00000000000000
(1736520238.121979) can0 310#FF306C0387020000
(1736520238.122280) can0 210#70806A0D00200000
(1736520238.123965) can0 305#056700078B00
(1736520238.124705) can0 174#FD7F0000EA8006F4
(1736520238.124953) can0 178#F87F01022F8106E8
(1736520238.125279) can0 17C#00000928D99E0626
(1736520238.125534) can0 205#D30086520C000000
(1736520238.126517) can0 101#F038316400000080
(1736520238.126968) can0 310#FF306C0387020000
(1736520238.129081) can0 113#1200000037000000
(1736520238.129335) can0 110#0C00000000000000
(1736520238.132006) can0 310#FF306C0387020000
(1736520238.132277) can0 210#70806A0D00200000
(1736520238.133955) can0 305#05670007FC00
(1736520238.134718) can0 174#F57F0000E78007BE
(1736520238.134947) can0 178#FD7F020F35810727
(1736520238.135185) can0 17C#00000928D49E07BE
(1736520238.135470) can0 205#D30086520C000000
(1736520238.137015) can0 310#FF306C0387020000
(1736520238.137451) can0 101#F038316400000080
(1736520238.139043) can0 113#1200000037000000
(1736520238.139297) can0 110#0C00000000000000
(1736520238.142006) can0 310#FF306C0387020000
(1736520238.142280) can0 210#70806A0D00200000
(1736520238.143940) can0 305#05670007ED00
(1736520238.144746) can0 174#EF7F0000E78008D4
(1736520238.144951) can0 178#FA7F03133D810883
(1736520238.145195) can0 17C#00000928D19E088C
(1736520238.145469) can0 205#D30086520C000000
(1736520238.147004) can0 310#FF306C0387020000
(1736520238.148338) can0 101#F038316400000080
(1736520238.149291) can0 110#0C00000000000000
(1736520238.149521) can0 113#1200000037000000
(1736520238.152029) can0 310#FF306C0387020000
(1736520238.152305) can0 210#70806A0D00200000
(1736520238.153962) can0 305#05670007DE00
(1736520238.154734) can0 174#EA7F0000E98009F4
(1736520238.154946) can0 178#FA7F0403358109BC
(1736520238.155184) can0 17C#00000928D39E0992
(1736520238.155455) can0 205#D30086520C000000
(1736520238.156990) can0 310#FF306C0386020000
(1736520238.159006) can0 113#1200000037000000
(1736520238.159211) can0 101#F038316400000080
(1736520238.159293) can0 110#0C00000000000000
(1736520238.162020) can0 310#FF306C0387020000
(1736520238.162279) can0 210#70806A0D00200000
(1736520238.163965) can0 305#05670007CF00
(1736520238.164703) can0 174#F57F0000E6800AB0
(1736520238.164958) can0 178#FA7F050826810A43
(1736520238.165187) can0 17C#00000928CE9E0A28
(1736520238.165469) can0 205#D30086520C000000
(1736520238.166991) can0 310#FF306C0386020000
(1736520238.168979) can0 113#1200000037000000
(1736520238.169279) can0 110#0C00000000000000
(1736520238.170034) can0 101#F038316400000080
(1736520238.170136) can0 206#27CE452802000200
(1736520238.172028) can0 310#FF306C0387020000
(1736520238.172291) can0 210#70806A0D00200000
(1736520238.173952) can0 305#056700073000
(1736520238.174720) can0 174#FA7F0000E7800B7E
(1736520238.174955) can0 178#FA7F062F23810BD7
(1736520238.175197) can0 17C#00000928CB9E0BBC
(1736520238.175495) can0 205#CF0077520C000000
(1736520238.177028) can0 310#FF306C0387020000
(1736520238.178952) can0 113#1200000037000000
(1736520238.179371) can0 110#0C00000000000000
(1736520238.180963) can0 101#F038316400000080
(1736520238.182043) can0 310#FF306C0387020000
(1736520238.182297) can0 210#7080680D00200000
(1736520238.183970) can0 305#056700072100
(1736520238.184741) can0 174#00800000EA800C60
(1736520238.184942) can0 178#F57F07051E810CEE
(1736520238.185185) can0 17C#00000928D69E0C72
(1736520238.185469) can0 205#CC006A520C000000
(1736520238.187027) can0 310#FF306C0387020000
(1736520238.188938) can0 113#1200000037000000
(1736520238.189191) can0 110#0C00000000000000
(1736520238.191653) can0 101#F038316400000080
(1736520238.192072) can0 310#FF306C0387020000
(1736520238.192299) can0 210#7080660D00200000
(1736520238.193939) can0 305#056700071200
(1736520238.194788) can0 174#FA7F0000EE800DB3
(1736520238.195014) can0 178#EF7F080E16810D74
(1736520238.195251) can0 17C#00000928EA9E0D4D
(1736520238.195541) can0 205#CC006A520C000000
(1736520238.197071) can0 310#FF306C0387020000
(1736520238.198994) can0 113#1200000037000000
(1736520238.199221) can0 110#0C00000000000000
(1736520238.199534) can0 111#D301CD016E007B01
(1736520238.199773) can0 112#6A017B018D017101
(1736520238.202072) can0 310#FF306C0387020000
(1736520238.202281) can0 210#7080660D00200000
(1736520238.202687) can0 101#F038316400000080
(1736520238.203957) can0 305#056700070300
(1736520238.204726) can0 174#F57F0000EA800ECE
(1736520238.204979) can0 178#EA7F090719810E8A
(1736520238.205235) can0 17C#00000928EA9E0E6A
(1736520238.205543) can0 205#CC006A520C000000
(1736520238.207094) can0 310#FF306C0387020000
(1736520238.208898) can0 113#1200000037000000
(1736520238.209140) can0 110#0C00000000000000
(1736520238.212056) can0 310#FF306C0387020000
(1736520238.212324) can0 210#7080660D00200000
(1736520238.213504) can0 101#F038316400000080
(1736520238.213958) can0 305#056700077400
(1736520238.214802) can0 174#F57F0000E1800F53
(1736520238.215011) can0 178#EF7F0A0920810F43
(1736520238.215187) can0 17C#00000928D79E0FDA
(1736520238.215468) can0 205#CC006A520C000000
(1736520238.217172) can0 310#FF306C0387020000
(1736520238.218938) can0 113#1200000037000000
(1736520238.219178) can0 110#0C00000000000000
(1736520238.222141) can0 310#FF306C0387020000
(1736520238.222373) can0 210#7080660D00200000
(1736520238.224034) can0 305#056700076500
(1736520238.224734) can0 174#F57F0000DE800046
(1736520238.224779) can0 101#F038316400000080
(1736520238.224992) can0 178#FA7F0B0E27810061
(1736520238.225389) can0 17C#00000928C59E007A
(1736520238.225390) can0 205#CC006A520C000000
(1736520238.227105) can0 310#FF306C0387020000
(1736520238.228833) can0 113#1200000037000000
(1736520238.229090) can0 110#0C00000000000000
(1736520238.232080) can0 310#FF306C0388020000
(1736520238.232349) can0 210#7080660D00200000
(1736520238.233965) can0 305#056700075600
(1736520238.234744) can0 174#F57F0000E680017F
(1736520238.234949) can0 178#03800C0531810163
(1736520238.235226) can0 17C#00000928BA9E01A9
(1736520238.235495) can0 205#CC006A520C000000
(1736520238.235930) can0 101#F038316400000080
(1736520238.237106) can0 310#FF306C0387020000
(1736520238.238828) can0 113#1200000037000000
(1736520238.239065) can0 110#0C00000000000000
(1736520238.242076) can0 310#FF306C0387020000
(1736520238.242349) can0 210#7080660D00200000
(1736520238.244025) can0 305#056700074700
(1736520238.244825) can0 174#F57F0000F2800246
(1736520238.244957) can0 178#0E800D05358102CE
(1736520238.245197) can0 17C#00000928B89E028D
(1736520238.245480) can0 205#CC006A520C000000
(1736520238.246922) can0 101#F038316400000080
(1736520238.247092) can0 310#FF306C0388020000
(1736520238.248818) can0 113#1200000037000000
(1736520238.249039) can0 110#0C00000000000000
(1736520238.252113) can0 310#FF306C0388020000
(1736520238.252375) can0 210#7080660D00200000
(1736520238.253940) can0 305#05670007B800
(1736520238.254800) can0 174#F57F0000F58003D1
(1736520238.254969) can0 178#14800E122C8103F6
(1736520238.255199) can0 17C#00000928BD9E0319
(1736520238.255481) can0 205#CC006A520C000000
(1736520238.257107) can0 310#FF306C0388020000
(1736520238.257749) can0 101#F038316400000080
(1736520238.258805) can0 113#1200000037000000
(1736520238.259037) can0 110#0C00000000000000
(1736520238.262160) can0 310#FF306C0388020000
(1736520238.262364) can0 210#7080660D00200000
(1736520238.263953) can0 305#05670007A900
(1736520238.264797) can0 174#F87F0000F1800462
(1736520238.265036) can0 178#11800F092181047D
(1736520238.265238) can0 17C#00000928C09E0487
(1736520238.265534) can0 205#CC006A520C000000
(1736520238.267120) can0 310#FF306C0387020000
(1736520238.268768) can0 113#1200000037000000
(1736520238.268994) can0 110#0C00000000000000
(1736520238.269078) can0 101#F038316400000080
(1736520238.270446) can0 206#3DCE4C2802000200
(1736520238.272140) can0 210#7080660D00200000
(1736520238.272384) can0 310#FF306C0387020000
(1736520238.273935) can0 305#056700079A00
(1736520238.274729) can0 174#F87F0000EE8005E1
(1736520238.274963) can0 178#0E80000E2181050D
(1736520238.275220) can0 17C#00000928C89E0596
(1736520238.275599) can0 205#C8006A620B000000
(1736520238.277116) can0 310#FF306C0387020000
(1736520238.278725) can0 113#1200000037000000
(1736520238.278984) can0 110#0C00000000000000
(1736520238.279981) can0 101#F038316400000080
(1736520238.282108) can0 210#7080640E00200000
(1736520238.282374) can0 310#FF306C0387020000
(1736520238.284033) can0 305#056700078B00
(1736520238.284734) can0 174#F57F0000EA800626
(1736520238.284970) can0 178#0B800107268106FF
(1736520238.285291) can0 17C#00000928CC9E06B7
(1736520238.285546) can0 205#C5006A820A000000
(1736520238.287161) can0 310#FF306C0387020000
(1736520238.288773) can0 113#1200000037000000
(1736520238.288965) can0 110#0C00000000000000
(1736520238.290984) can0 101#F038316400000080
(1736520238.292152) can0 210#7080630E00200000
(1736520238.292432) can0 310#FF306C0387020000
(1736520238.294008) can0 305#05670007FC00
(1736520238.294801) can0 174#F57F0000E78007BE
(1736520238.295042) can0 178#0B80022F2F810709
(1736520238.295248) can0 17C#00000928D09E07B8
(1736520238.295612) can0 205#C5006A820A000000
(1736520238.297217) can0 310#FF306C0387020000
(1736520238.298677) can0 113#1200000037000000
(1736520238.298935) can0 110#0C00000000000000
(1736520238.299230) can0 111#C101BD0173007001
(1736520238.299554) can0 112#7801790174018701
(1736520238.301917) can0 101#F038316400000080
(1736520238.302389) can0 210#7080630E00200000
(1736520238.302627) can0 310#FF306C0387020000
(1736520238.304011) can0 305#05670007ED00
(1736520238.304813) can0 174#F57F0000EA800880
(1736520238.305045) can0 178#0E8003073D810821
(1736520238.305254) can0 17C#00000928D49E0805
(1736520238.305546) can0 205#C5006A820A000000
(1736520238.307258) can0 310#FF306C0387020000
(1736520238.308719) can0 113#1200000037000000
(1736520238.308979) can0 110#0C00000000000000
(1736520238.312170) can0 210#7080630E00200000
(1736520238.312399) can0 310#FF306C0387020000
(1736520238.312753) can0 101#F038316400000080
(1736520238.313976) can0 305#05670007DE00
(1736520238.314804) can0 174#F57F0000EE80099B
(1736520238.315067) can0 178#1480040D3F81095E
(1736520238.315342) can0 17C#00000928D49E0918
(1736520238.315657) can0 205#C5006A820A000000
(1736520238.317243) can0 310#FF306C0387020000
(1736520238.318692) can0 113#1200000037000000
(1736520238.318925) can0 110#0C00000000000000
(1736520238.322195) can0 210#7080630E00200000
(1736520238.322349) can0 310#FF306C0387020000
(1736520238.323783) can0 101#F038316400000080
(1736520238.323915) can0 305#05670007CF00
(1736520238.324850) can0 174#EF7F0000EC800A6E
(1736520238.325115) can0 178#0E80050239810AAF
(1736520238.325351) can0 17C#00000928C19E0AAE
(1736520238.325683) can0 205#C5006A820A000000
(1736520238.327289) can0 310#FF306C0388020000
(1736520238.328667) can0 113#1200000037000000
(1736520238.328898) can0 110#0C00000000000000
(1736520238.332227) can0 210#7080630E00200000
(1736520238.332337) can0 310#FF306C0388020000
(1736520238.333929) can0 305#056700073000
(1736520238.334741) can0 174#EA7F0000E9800BCE
(1736520238.334909) can0 101#F038316400000080
(1736520238.335000) can0 178#0880060839810B64
(1736520238.335467) can0 17C#00000928B79E0BFE
(1736520238.335959) can0 205#C5006A820A000000
(1736520238.337289) can0 310#FF306C0387020000
(1736520238.338640) can0 113#1200000037000000
(1736520238.338869) can0 110#0C00000000000000
(1736520238.342163) can0 210#7080630E00200000
(1736520238.342431) can0 310#FF306C0388020000
(1736520238.344030) can0 305#056700072100
(1736520238.344802) can0 174#E47F0000EA800C10
(1736520238.344970) can0 178#038000003D810CF9
(1736520238.345277) can0 17C#00000928BA9E0C28
(1736520238.345696) can0 205#C5006A820A000000
(1736520238.345782) can0 101#F038316400000080
(1736520238.347238) can0 310#FF306C0388020000
(1736520238.348614) can0 113#1200000037000000
(1736520238.348849) can0 110#0C00000000000000
(1736520238.352188) can0 210#7080630E00200000
(1736520238.352401) can0 310#FF306C0387020000
(1736520238.354020) can0 305#056700071200
(1736520238.354805) can0 174#DE7F0000EA800DB3
(1736520238.355035) can0 178#008001283A810D35
(1736520238.355253) can0 17C#00000928C59E0DFB
(1736520238.355802) can0 205#C5006A820A000000
(1736520238.356622) can0 101#F038316400000080
(1736520238.357414) can0 310#FF306C0388020000
(1736520238.358568) can0 113#1200000037000000
(1736520238.358844) can0 110#0C00000000000000
(1736520238.362165) can0 210#7080630E00200000
(1736520238.362398) can0 310#FF306C0388020000
(1736520238.363995) can0 305#056700070300
(1736520238.364821) can0 174#DE7F0000E7800E11
(1736520238.365063) can0 178#0380022037810E52
(1736520238.365341) can0 17C#00000928D49E0E4B
(1736520238.365837) can0 205#C5006A820A000000
(1736520238.367238) can0 310#FF306C0388020000
(1736520238.367408) can0 101#F038316400000080
(1736520238.368630) can0 113#1200000037000000
(1736520238.368785) can0 110#0C00000000000000
(1736520238.370779) can0 206#53CE522802000200
(1736520238.372159) can0 210#7080630E00200000
(1736520238.372411) can0 310#FF306C0388020000
(1736520238.373974) can0 305#056700077400
(1736520238.374818) can0 174#E47F0000E3800FB4
(1736520238.375024) can0 178#0380032139810FB1
(1736520238.375237) can0 17C#00000928DE9E0F59
(1736520238.375930) can0 205#C8006A720B000000
(1736520238.377292) can0 310#FF306C0388020000
(1736520238.378421) can0 101#F038316400000080
(1736520238.378469) can0 113#1200000037000000
(1736520238.378949) can0 110#0C00000000000000
(1736520238.382068) can0 210#7080640E00200000
(1736520238.382372) can0 310#FF306C0388020000
(1736520238.384023) can0 305#056700076500
(1736520238.384729) can0 174#E47F0000E180000C
(1736520238.385067) can0 178#008004203981007B
(1736520238.385266) can0 17C#00000928E59E004A
(1736520238.385911) can0 205#CC006A520C000000
(1736520238.387306) can0 310#FF306C0388020000
(1736520238.388537) can0 113#1200000037000000
(1736520238.388718) can0 110#0C00000000000000
(1736520238.389275) can0 101#F038316400000080
(1736520238.392121) can0 210#7080660D00200000
(1736520238.392370) can0 310#FF306C0388020000
(1736520238.393914) can0 305#056700075600
(1736520238.394812) can0 174#EF7F0000E48001AD
(1736520238.395041) can0 178#0080052935810107
(1736520238.395365) can0 17C#00000928F09E01C6
(1736520238.395902) can0 205#CC006A520C000000
(1736520238.397378) can0 310#FF306C0388020000
(1736520238.398510) can0 113#1200000037000000
(1736520238.398753) can0 110#0C00000000000000
(1736520238.398993) can0 111#D401CD0168008001
(1736520238.399238) can0 112#760189018A017C01
(1736520238.400063) can0 101#F038316400000080
(1736520238.402113) can0 210#7080660D00200000
(1736520238.402332) can0 310#FF306C0388020000
(1736520238.404003) can0 305#056700074700
(1736520238.404820) can0 174#F87F0000E68002BE
(1736520238.405032) can0 178#FD7F06253C810289
(1736520238.405337) can0 17C#00000928F39E026D
(1736520238.405925) can0 205#CC006A520C000000
(1736520238.407354) can0 310#FF306C0388020000
(1736520238.408486) can0 113#1200000037000000
(1736520238.408728) can0 110#0C00000000000000
(1736520238.410922) can0 101#F038316400000080
(1736520238.412072) can0 210#7080660D00200000
(1736520238.412332) can0 310#FF306C0389020000
(1736520238.413944) can0 305#05670007B800
(1736520238.414745) can0 174#FD7F0000EC800398
(1736520238.414988) can0 178#FA7F07284081037D
(1736520238.415304) can0 17C#00000928E29E03E7
(1736520238.415891) can0 205#CC006A520C000000
(1736520238.417326) can0 310#FF306C0389020000
(1736520238.418395) can0 113#1200000037000000
(1736520238.418629) can0 110#0C00000000000000
(1736520238.421917) can0 101#F038316400000080
(1736520238.422049) can0 210#7080660D00200000
(1736520238.422457) can0 310#FF306C0389020000
(1736520238.423908) can0 305#05670007A900
(1736520238.424739) can0 174#FA7F0000F18004D8
(1736520238.425010) can0 178#FD7F08233F810434
(1736520238.425277) can0 17C#00000928D99E041C
(1736520238.425906) can0 205#CC006A520C000000
(1736520238.427287) can0 310#FF306C0389020000
(1736520238.428359) can0 113#1200000037000000
(1736520238.428614) can0 110#0C00000000000000
(1736520238.432118) can0 210#7080660D00200000
(1736520238.432302) can0 310#FF306C0389020000
(1736520238.432983) can0 101#F038316400000080
(1736520238.433907) can0 305#056700079A00
(1736520238.434729) can0 174#FA7F0000EA80055D
(1736520238.434982) can0 178#0B80092040810544
(1736520238.435289) can0 17C#00000928E79E0520
(1736520238.435962) can0 205#CC006A520C000000
(1736520238.437307) can0 310#FF306C0389020000
(1736520238.438336) can0 113#1200000037000000
(1736520238.438575) can0 110#0C00000000000000
(1736520238.442053) can0 210#7080660D00200000
(1736520238.442305) can0 310#FF306C0389020000
(1736520238.443762) can0 101#F038316400000080
(1736520238.443892) can0 305#056700078B00
(1736520238.444748) can0 174#FA7F0000E78006FF
(1736520238.444994) can0 178#16800A25458106D8
(1736520238.445348) can0 17C#00000928F09E0695
(1736520238.445977) can0 205#CC006A520C000000
(1736520238.447351) can0 310#FF306C0389020000
(1736520238.448373) can0 113#1200000037000000
(1736520238.448556) can0 110#0C00000000000000
(1736520238.452058) can0 210#7080660D00200000
(1736520238.452290) can0 310#FF306C0389020000
(1736520238.453906) can0 305#05670007FC00
(1736520238.454735) can0 174#FA7F0000E480076E
(1736520238.455013) can0 101#F038316400000080
(1736520238.455016) can0 178#16800B243F810775
(1736520238.455408) can0 17C#00000928E79E071A
(1736520238.455977) can0 205#CC006A520C000000
(1736520238.457336) can0 310#FF306C0389020000
(1736520238.458300) can0 113#1200000037000000
(1736520238.458556) can0 110#0C00000000000000
(1736520238.462002) can0 210#7080660D00200000
(1736520238.462282) can0 310#FF306C0389020000
(1736520238.463969) can0 305#05670007ED00
(1736520238.464794) can0 174#FA7F0000E68008D6
(1736520238.464991) can0 178#118000003C810801
(1736520238.465297) can0 17C#00000928E29E0828
(1736520238.465817) can0 101#F038316400000080
(1736520238.466042) can0 205#CC006A520C000000
(1736520238.467338) can0 310#FF306C0389020000
(1736520238.468302) can0 113#1200000037000000
(1736520238.468525) can0 110#0C00000000000000
(1736520238.470960) can0 206#69CE592802000200
(1736520238.472085) can0 210#7080660D00200000
(1736520238.472380) can0 310#FF306C0389020000
(1736520238.473990) can0 305#05670007DE00
(1736520238.474811) can0 174#F57F0000EA80099D
(1736520238.474989) can0 178#088000003F8109A6
(1736520238.475289) can0 17C#00000928DA9E0911
(1736520238.476179) can0 205#C8006A620B000000
(1736520238.476614) can0 101#F038316400000080
(1736520238.477505) can0 310#FF306C0389020000
(1736520238.478198) can0 113#1200000037000000
(1736520238.478503) can0 110#0C00000000000000
(1736520238.482112) can0 210#7080640E00200000
(1736520238.482396) can0 310#FF306C038A020000
(1736520238.483948) can0 305#05670007CF00
(1736520238.484796) can0 174#F57F0000EE800ABC
(1736520238.485052) can0 178#008000FF3D810AF6
(1736520238.485351) can0 17C#00000928C99E0AA2
(1736520238.486104) can0 205#C5006A820A000000
(1736520238.487298) can0 310#FF306C0389020000
(1736520238.487354) can0 101#F038316400000080
(1736520238.488308) can0 110#0C00000000000000
(1736520238.488536) can0 113#1200000037000000
(1736520238.491978) can0 210#7080630E00200000
(1736520238.492373) can0 310#FF306C038A020000
(1736520238.493880) can0 305#056700073000
(1736520238.494796) can0 174#F27F0000EE800B2F
(1736520238.495053) can0 178#FD7F00003A810B81
(1736520238.495339) can0 17C#00000928B59E0BFD
(1736520238.496090) can0 205#C5006A820A000000
(1736520238.497377) can0 310#FF306C038A020000
(1736520238.498068) can0 101#F038316400000080
(1736520238.498178) can0 113#1200000037000000
(1736520238.498618) can0 110#0C00000000000000
(1736520238.498877) can0 111#D301CA0164006C01
(1736520238.502110) can0 210#7080630E00200000
(1736520238.502400) can0 310#FF306C0389020000
(1736520238.503943) can0 305#056700072100
(1736520238.504804) can0 174#EF7F0000E7800CA0
(1736520238.505037) can0 178#FA7F010635810CD9
(1736520238.505337) can0 17C#00000928AF9E0CB9
(1736520238.506175) can0 205#C5006A820A000000
(1736520238.507357) can0 310#FF306C038A020000
(1736520238.508155) can0 113#1200000037000000
(1736520238.508399) can0 110#0C00000000000000
(1736520238.508931) can0 101#F038316400000080
(1736520238.512110) can0 210#7080630E00200000
(1736520238.512376) can0 310#FF306C038A020000
(1736520238.513955) can0 305#056700071200
(1736520238.514806) can0 174#F57F0000E4800DE0
(1736520238.515074) can0 178#FA7F02202E810DC1
(1736520238.515298) can0 17C#00000928B79E0DB0
(1736520238.516229) can0 205#C5006A820A000000
(1736520238.517458) can0 310#FF306C0389020000
(1736520238.518149) can0 113#1200000037000000
(1736520238.518395) can0 110#0C00000000000000
(1736520238.519810) can0 101#F038316400000080
(1736520238.521976) can0 210#7080630E00200000
(1736520238.522383) can0 310#FF306C038A020000
(1736520238.523878) can0 305#056700070300
(1736520238.524724) can0 174#FA7F0000E1800E12
(1736520238.524980) can0 178#EF7F032324810EB4
(1736520238.525288) can0 17C#00000928C59E0EDC
(1736520238.526180) can0 205#C5006A820A000000
(1736520238.527425) can0 310#FF306C038A020000
(1736520238.528155) can0 113#1200000037000000
(1736520238.528431) can0 110#0C00000000000000
(1736520238.530602) can0 101#F038316400000080
(1736520238.532006) can0 210#7080630E00200000
(1736520238.532406) can0 310#FF306C038A020000
(1736520238.533886) can0 305#056700077400
(1736520238.534723) can0 174#FA7F0000E3800F0C
(1736520238.534941) can0 178#E77F04272C810F32
(1736520238.535196) can0 17C#00000928D49E0F56
(1736520238.536211) can0 205#C5006A820A000000
(1736520238.537384) can0 310#FF306C038A020000
(1736520238.538137) can0 113#1200000037000000
(1736520238.538400) can0 110#0C00000000000000
(1736520238.541400) can0 101#F038316400000080
(1736520238.541974) can0 210#7080630E00200000
(1736520238.542462) can0 310#FF306C0389020000
(1736520238.543892) can0 305#056700076500
(1736520238.544723) can0 174#FA7F0000E18000B4
(1736520238.544954) can0 178#DE7F0520378100D6
(1736520238.545195) can0 17C#00000928D99E0068
(1736520238.546300) can0 205#C5006A820A000000
(1736520238.547408) can0 310#FF306C038A020000
(1736520238.548055) can0 113#1200000037000000
(1736520238.548318) can0 110#0C00000000000000
(1736520238.552045) can0 210#7080630E00200000
(1736520238.552360) can0 101#F038316400000080
(1736520238.552391) can0 310#FF306C038A020000
(1736520238.553880) can0 305#056700075600
(1736520238.554724) can0 174#FA7F0000DC800104
(1736520238.554980) can0 178#D97F06203C81017B
(1736520238.555288) can0 17C#00000928D19E0179
(1736520238.556313) can0 205#C5006A820A000000
(1736520238.557409) can0 310#FF306C038A020000
(1736520238.558030) can0 113#1200000037000000
(1736520238.558318) can0 110#0C00000000000000
(1736520238.562130) can0 210#7080630E00200000
(1736520238.562401) can0 310#FF306C038B020000
(1736520238.563330) can0 101#F038316400000080
(1736520238.563894) can0 305#056700074700
(1736520238.564724) can0 174#FA7F0000E380028D
(1736520238.564997) can0 178#D37F07203F8102D2
(1736520238.565287) can0 17C#00000928CB9E0249
(1736520238.566298) can0 205#C5006A820A000000
(1736520238.567400) can0 310#FF306C038A020000
(1736520238.567992) can0 113#1200000037000000
(1736520238.568287) can0 110#0C00000000000000
(1736520238.571346) can0 206#7FCE5F2802000200
(1736520238.572041) can0 210#7080630E00200000
(1736520238.572485) can0 310#FF306C038A020000
(1736520238.573859) can0 305#05670007B800
(1736520238.573938) can0 101#F038316400000080
(1736520238.574872) can0 174#FA7F0000E7800396
(1736520238.575074) can0 178#D97F08243D810396
(1736520238.575318) can0 17C#00000928D49E03CA
(1736520238.576410) can0 205#C1005B820A000000
(1736520238.577417) can0 310#FF306C038B020000
(1736520238.577987) can0 113#1200000037000000
(1736520238.578301) can0 110#0C00000000000000
(1736520238.581994) can0 210#7080610F00200000
(1736520238.582514) can0 310#FF306C038A020000
(1736520238.584088) can0 305#05670007A900
(1736520238.584726) can0 174#00800000E4800481
(1736520238.584807) can0 101#F038316400000080
(1736520238.584965) can0 178#D37F09203981048F
(1736520238.585404) can0 17C#00000928DE9E0496
(1736520238.586356) can0 205#BE004E820A000000
(1736520238.587436) can0 310#FF306C038A020000
(1736520238.587966) can0 113#1200000037000000
(1736520238.588297) can0 110#0C00000000000000
(1736520238.592057) can0 210#70805F0F00200000
(1736520238.592531) can0 310#FF306C038B020000
(1736520238.593956) can0 305#056700079A00
(1736520238.594725) can0 174#08800000E480054E
(1736520238.595048) can0 178#D67F0A2132810505
(1736520238.595344) can0 17C#00000928E79E0520
(1736520238.596417) can0 205#BE004E820A000000
(1736520238.596740) can0 101#F038316400000080
(1736520238.597622) can0 310#FF306C038A020000
(1736520238.598011) can0 113#1200000037000000
(1736520238.598284) can0 110#0C00000000000000
(1736520238.598553) can0 111#C401BD0164008101
(1736520238.598795) can0 112#7401900187016E01
(1736520238.602056) can0 210#70805F0F00200000
(1736520238.602459) can0 310#FF306C038A020000
(1736520238.603850) can0 305#056700078B00
(1736520238.604733) can0 174#03800000E98006D9
(1736520238.605000) can0 178#E17F00002F810693
(1736520238.605295) can0 17C#00000928ED9E0608
(1736520238.606406) can0 205#BE004E820A000000
(1736520238.607439) can0 310#FF306C038A020000
(1736520238.607814) can0 101#F038316400000080
(1736520238.607907) can0 113#1200000037000000
(1736520238.608297) can0 110#0C00000000000000
(1736520238.611987) can0 210#70805F0F00200000
(1736520238.612534) can0 310#FF306C038A020000
(1736520238.613928) can0 305#05670007FC00
(1736520238.614797) can0 174#FA7F0000EF8007EE
(1736520238.615056) can0 178#EA7F01222E810733
(1736520238.615353) can0 17C#00000928EC9E079A
(1736520238.616508) can0 205#BE004E820A000000
(1736520238.617541) can0 310#FF306C038A020000
(1736520238.617972) can0 113#1200000037000000
(1736520238.618225) can0 110#0C00000000000000
(1736520238.619396) can0 101#F038316400000080
(1736520238.622060) can0 210#70805F0F00200000
(1736520238.622462) can0 310#FF306C038A020000
(1736520238.623855) can0 305#05670007ED00
(1736520238.624806) can0 174#EF7F0000F18008C9
(1736520238.625035) can0 178#EF7F022831810827
(1736520238.625235) can0 17C#00000928E19E08A4
(1736520238.626534) can0 205#BE004E820A000000
(1736520238.627542) can0 310#FF306C038A020000
(1736520238.627899) can0 113#1200000037000000
(1736520238.628176) can0 110#0C00000000000000
(1736520238.630170) can0 101#F038316400000080
(1736520238.632005) can0 210#70805F0F00200000
(1736520238.632577) can0 310#FF306C038A020000
(1736520238.633921) can0 305#05670007DE00
(1736520238.634722) can0 174#EA7F0000F4800969
(1736520238.635089) can0 178#EF7F0320358109CA
(1736520238.635209) can0 17C#00000928D99E099D
(1736520238.636558) can0 205#BE004E820A000000
(1736520238.637533) can0 310#FF306C038B020000
(1736520238.637847) can0 113#1200000037000000
(1736520238.638144) can0 110#0C00000000000000
(1736520238.641051) can0 101#F038316400000080
(1736520238.642016) can0 210#70805F0F00200000
(1736520238.642564) can0 310#FF306C038B020000
(1736520238.643947) can0 305#05670007CF00
(1736520238.644803) can0 174#E77F0000F7800A24
(1736520238.644979) can0 178#EF7F042935810AE7
(1736520238.645274) can0 17C#00000928D49E0A3F
(1736520238.646533) can0 205#BE004E820A000000
(1736520238.647533) can0 310#FF306C038B020000
(1736520238.647870) can0 113#1200000037000000
(1736520238.648119) can0 110#0C00000000000000
(1736520238.652037) can0 210#70805F0F00200000
(1736520238.652352) can0 101#F038316400000080
(1736520238.652558) can0 310#FF306C038A020000
(1736520238.653925) can0 305#056700073000
(1736520238.654795) can0 174#EF7F0000F4800B67
(1736520238.655033) can0 178#F57F000032810B5F
(1736520238.655337) can0 17C#00000928CE9E0B35
(1736520238.656608) can0 205#BE004E820A000000
(1736520238.657583) can0 310#FF306C038B020000
(1736520238.657782) can0 113#1200000037000000
(1736520238.658123) can0 110#0C00000000000000
(1736520238.662018) can0 210#70805F0F00200000
(1736520238.662561) can0 310#FF306C038B020000
(1736520238.663054) can0 101#F038316400000080
(1736520238.663925) can0 305#056700072100
(1736520238.664797) can0 174#FD7F0000F2800C32
(1736520238.665105) can0 178#F57F012539810C7F
(1736520238.665351) can0 17C#00000928D19E0CF8
(1736520238.666636) can0 205#BE004E820A000000
(1736520238.667585) can0 310#FF306C038A020000
(1736520238.667821) can0 113#1200000037000000
(1736520238.668048) can0 110#0C00000000000000
(1736520238.671593) can0 206#94CE652802000200
(1736520238.671986) can0 210#70805F0F00200000
(1736520238.672558) can0 310#FF306C038B020000
(1736520238.673934) can0 305#056700071200
(1736520238.673961) can0 101#F038316400000080
(1736520238.674874) can0 174#FD7F0000F2800D2F
(1736520238.675123) can0 178#F57F022034810D8A
(1736520238.675354) can0 17C#00000928DC9E0D60
(1736520238.676756) can0 205#C1005C820A000000
(1736520238.677591) can0 310#FF306C038B020000
(1736520238.677767) can0 110#0C00000000000000
(1736520238.678060) can0 113#1200000037000000
(1736520238.682020) can0 210#7080610F00200000
(1736520238.682667) can0 310#FF306C038B020000
(1736520238.683878) can0 305#056700070300
(1736520238.684721) can0 174#F27F0000EC800E45
(1736520238.684737) can0 101#F038316400000080
(1736520238.685033) can0 178#F57F032229810E7D
(1736520238.685386) can0 17C#00000928DA9E0E42
(1736520238.686731) can0 205#C5006A820A000000
(1736520238.687611) can0 310#FF306C038B020000
(1736520238.687847) can0 110#0C00000000000000
(1736520238.688085) can0 113#1200000037000000
(1736520238.691994) can0 210#7080630E00200000
(1736520238.692514) can0 310#FF306C038B020000
(1736520238.693927) can0 305#056700077400
(1736520238.694791) can0 174#EA7F0000E9800FBA
(1736520238.695036) can0 178#FA7F042F23810F77
(1736520238.695339) can0 17C#00000928C89E0F44
(1736520238.695639) can0 101#F038316400000080
(1736520238.696713) can0 205#C5006A820A000000
(1736520238.697609) can0 310#FF306C038A020000
(1736520238.697864) can0 110#0C00000000000000
(1736520238.698097) can0 111#C301BE0162006C01
(1736520238.698370) can0 112#840172017B016C01
(1736520238.698527) can0 113#1200000037000000
(1736520238.701976) can0 210#7080630E00200000
(1736520238.702584) can0 310#FF306C038B020000
(1736520238.703838) can0 305#056700076500
(1736520238.704794) can0 174#E47F0000E4800085
(1736520238.705044) can0 178#FD7F051223810008
(1736520238.705333) can0 17C#00000928AD9E0026
(1736520238.706755) can0 205#C5006A820A000000
(1736520238.707387) can0 101#F038316400000080
(1736520238.707626) can0 310#FF306C038A020000
(1736520238.708078) can0 110#0C00000000000000
(1736520238.708259) can0 113#1200000037000000
(1736520238.711990) can0 210#7080630E00200000
(1736520238.712639) can0 310#FF306C038B020000
(1736520238.713829) can0 305#056700075600
(1736520238.714718) can0 174#E77F0000E38001F5
(1736520238.714965) can0 178#FA7F06242C8101A5
(1736520238.715180) can0 17C#00000928999E0115
(1736520238.716768) can0 205#C5006A820A000000
(1736520238.717626) can0 310#FF306C038B020000
(1736520238.717854) can0 110#0C00000000000000
(1736520238.718099) can0 113#1200000037000000
(1736520238.718373) can0 101#F038316400000080
(1736520238.721963) can0 210#7080630E00200000
(1736520238.722648) can0 310#FF306C038B020000
(1736520238.723909) can0 305#056700074700
(1736520238.724805) can0 174#EF7F0000E7800206
(1736520238.725031) can0 178#FA7F0725378102ED
(1736520238.725344) can0 17C#000009289C9E02BB
(1736520238.726806) can0 205#C5006A820A000000
(1736520238.727655) can0 310#FF306C038B020000
(1736520238.727879) can0 110#0C00000000000000
(1736520238.728133) can0 113#1200000037000000
(1736520238.729170) can0 101#F038316400000080
(1736520238.731960) can0 210#7080630E00200000
(1736520238.732671) can0 310#FF306C038B020000
(1736520238.733905) can0 305#05670007B800
(1736520238.734805) can0 174#F57F0000EE800349
(1736520238.735070) can0 178#FA7F082340810327
(1736520238.735353) can0 17C#00000928BA9E0393
(1736520238.736832) can0 205#C5006A820A000000
(1736520238.737577) can0 310#FF306C038B020000
(1736520238.737812) can0 110#0C00000000000000
(1736520238.738087) can0 113#1200000037000000
(1736520238.739850) can0 101#F038316400000080
(1736520238.741950) can0 210#7080630E00200000
(1736520238.742661) can0 310#FF306C038B020000
(1736520238.743898) can0 305#05670007A900
(1736520238.744799) can0 174#FA7F0000EC800445
(1736520238.745042) can0 178#F27F092740810482
(1736520238.745381) can0 17C#00000928D49E0499
(1736520238.746842) can0 205#C5006A820A000000
(1736520238.747666) can0 113#1200000037000000
(1736520238.747898) can0 110#0C00000000000000
(1736520238.748129) can0 310#FF306C038B020000
(1736520238.750649) can0 101#F038316400000080
(1736520238.751969) can0 210#7080630E00200000
(1736520238.752704) can0 310#FF306C038B020000
(1736520238.753908) can0 305#056700079A00
(1736520238.754822) can0 174#FA7F0000EA80055D
(1736520238.755042) can0 178#EC7F00003F81054A
(1736520238.755331) can0 17C#00000928DE9E058B
(1736520238.756867) can0 205#C5006A820A000000
(1736520238.757619) can0 113#1200000037000000
(1736520238.757866) can0 110#0C00000000000000
(1736520238.758118) can0 310#FF306C038B020000
(1736520238.761673) can0 101#F038316400000080
(1736520238.761919) can0 210#7080630E00200000
(1736520238.762803) can0 310#FF306C038B020000
(1736520238.763897) can0 305#056700078B00
(1736520238.764724) can0 174#FA7F0000EC80067F
(1736520238.765062) can0 178#EA7F01253D81064E
(1736520238.765332) can0 17C#00000928E49E068B
(1736520238.766900) can0 205#C5006A820A000000
(1736520238.767581) can0 113#1200000037000000
(1736520238.767838) can0 110#0C00000000000000
(1736520238.768084) can0 310#FF306C038B020000
(1736520238.771815) can0 206#AACE6B2802000200
(1736520238.772045) can0 210#7080630E00200000
(1736520238.772511) can0 101#F038316400000080
(1736520238.772572) can0 310#FF306C038B020000
(1736520238.773824) can0 305#05670007FC00
(1736520238.774747) can0 174#FA7F0000EE800761
(1736520238.774964) can0 178#EA7F02392E81078E
(1736520238.775209) can0 17C#00000928E99E0713
(1736520238.776964) can0 205#C1005B820A000000
(1736520238.777483) can0 113#1200000037000000
(1736520238.777727) can0 110#0C00000000000000
(1736520238.778009) can0 310#FF306C038B020000
(1736520238.781850) can0 210#7080610F00200000
(1736520238.782603) can0 310#FF306C038B020000
(1736520238.783180) can0 101#F038316400000080
(1736520238.784048) can0 305#05670007ED00
(1736520238.784720) can0 174#F87F0000EE800860
(1736520238.784964) can0 178#EF7F03211C8108F9
(1736520238.785272) can0 17C#00000928E99E08A8
(1736520238.786948) can0 205#BE004E820A000000
(1736520238.787483) can0 113#1200000037000000
(1736520238.787739) can0 110#0C00000000000000
(1736520238.787959) can0 310#FF306C038C020000
(1736520238.791867) can0 210#70805F0F00200000
(1736520238.792688) can0 310#FF306C038B020000
(1736520238.793844) can0 305#05670007DE00
(1736520238.794124) can0 101#F038316400000080
(1736520238.794744) can0 174#EF7F0000EF8009C5
(1736520238.795187) can0 178#FA7F04201C8109FF
(1736520238.795475) can0 17C#00000928E79E09BC
(1736520238.796930) can0 205#BE004E820A000000
(1736520238.797459) can0 113#1200000038000000
(1736520238.797719) can0 110#0C00000000000000
(1736520238.797959) can0 111#C201BE0160006D01
(1736520238.798201) can0 112#69017C018C017901
(1736520238.798462) can0 310#FF306C038C020000
(1736520238.801926) can0 210#70805F0F00200000
(1736520238.802687) can0 310#FF306C038B020000
(1736520238.803798) can0 305#05670007CF00
(1736520238.804762) can0 174#EA7F0000F1800AC7
(1736520238.804989) can0 178#FA7F000023810A89
(1736520238.805286) can0 17C#00000928DA9E0A36
(1736520238.805831) can0 101#F038316400000080
(1736520238.806963) can0 205#BE004E820A000000
(1736520238.807431) can0 113#1200000038000000
(1736520238.807696) can0 110#0C00000000000000
(1736520238.807940) can0 310#FF306C038B020000
(1736520238.811848) can0 210#70805F0F00200000
(1736520238.812708) can0 310#FF306C038C020000
(1736520238.813823) can0 305#056700073000
(1736520238.814730) can0 174#E17F0000F1800BEF
(1736520238.814973) can0 178#FA7F00002A810B17
(1736520238.815315) can0 17C#00000928D09E0B24
(1736520238.817043) can0 205#BE004E820A000000
(1736520238.817294) can0 101#F038316400000080
(1736520238.817380) can0 113#1200000038000000
(1736520238.817831) can0 110#0C00000000000000
(1736520238.818071) can0 310#FF306C038B020000
(1736520238.821925) can0 210#70805F0F00200000
(1736520238.822744) can0 310#FF306C038C020000
(1736520238.823797) can0 305#056700072100
(1736520238.824808) can0 174#E17F0000F1800CBC
(1736520238.825039) can0 178#FA7F012135810C67
(1736520238.825348) can0 17C#00000928D19E0CF8
(1736520238.827076) can0 205#BE004E820A000000
(1736520238.827437) can0 113#1200000038000000
(1736520238.827696) can0 110#0C00000000000000
(1736520238.827940) can0 310#FF306C038C020000
(1736520238.828170) can0 101#F038316400000080
(1736520238.831923) can0 210#70805F0F00200000
(1736520238.832766) can0 310#FF306C038B020000
(1736520238.833906) can0 305#056700071200
(1736520238.834793) can0 174#EA7F0000F4800D1D
(1736520238.835046) can0 178#FA7F022839810DCF
(1736520238.835338) can0 17C#00000928CE9E0D7B
(1736520238.837125) can0 205#BE004E820A000000
(1736520238.837394) can0 113#1200000038000000
(1736520238.837666) can0 110#0C00000000000000
(1736520238.837899) can0 310#FF306C038C020000
(1736520238.839142) can0 101#F038316400000080
(1736520238.841923) can0 210#70805F0F00200000
(1736520238.842766) can0 310#FF306C038C020000
(1736520238.843873) can0 305#056700070300
(1736520238.844792) can0 174#EF7F0000F1800E87
(1736520238.845046) can0 178#0380033235810E39
(1736520238.845336) can0 17C#00000928BE9E0E14
(1736520238.847127) can0 205#BE004E820A000000
(1736520238.847372) can0 113#1200000038000000
(1736520238.847644) can0 110#0C00000000000000
(1736520238.847814) can0 310#FF306C038C020000
(1736520238.850050) can0 101#F038316400000080
(1736520238.851899) can0 210#70805F0F00200000
(1736520238.852710) can0 310#FF306C038C020000
(1736520238.853867) can0 305#056700077400
(1736520238.854966) can0 174#EF7F0000EF800F8B
(1736520238.855003) can0 178#0380042039810F27
(1736520238.855285) can0 17C#00000928A59E0F91
(1736520238.857154) can0 205#BE004E820A000000
(1736520238.857398) can0 110#0C00000000000000
(1736520238.857647) can0 113#1200000038000000
(1736520238.857898) can0 310#FF306C038C020000
(1736520238.860865) can0 101#F038316400000080
(1736520238.861910) can0 210#70805F0F00200000
(1736520238.862769) can0 310#FF306C038C020000
(1736520238.863871) can0 305#056700076500
(1736520238.864795) can0 174#EA7F0000EA80008D
(1736520238.865073) can0 178#0880052331810075
(1736520238.865339) can0 17C#000009289C9E0081
(1736520238.867192) can0 205#BE004E820A000000
(1736520238.867373) can0 110#0C00000000000000
(1736520238.867619) can0 113#1200000038000000
(1736520238.867833) can0 310#FF306C038D020000
(1736520238.871769) can0 101#F038316400000080
(1736520238.871808) can0 210#70805F0F00200000
(1736520238.872240) can0 206#BFCE712802000200
(1736520238.872718) can0 310#FF306C038C020000
(1736520238.873877) can0 305#056700075600
(1736520238.874731) can0 174#E77F0000E680017C
(1736520238.874994) can0 178#0880063221810176
(1736520238.875195) can0 17C#00000928B29E01A5
(1736520238.877397) can0 205#C5005C720B000000
(1736520238.877641) can0 110#0C00000000000000
(1736520238.877766) can0 113#1200000038000000
(1736520238.878114) can0 310#FF306C038C020000
(1736520238.881910) can0 210#7080630E00200000
(1736520238.882609) can0 101#F038316400000080
(1736520238.882683) can0 310#FF306C038D020000
(1736520238.883815) can0 305#056700074700
(1736520238.884792) can0 174#E47F0000E3800235
(1736520238.884978) can0 178#0B80072123810240
(1736520238.885271) can0 17C#00000928D09E02D1
(1736520238.887309) can0 205#CC006A520C000000
(1736520238.887472) can0 110#0C00000000000000
(1736520238.887703) can0 113#1200000038000000
(1736520238.887916) can0 310#FF306C038C020000
(1736520238.891902) can0 210#7080660D00200000
(1736520238.892809) can0 310#FF306C038C020000
(1736520238.893883) can0 305#05670007B800
(1736520238.893933) can0 101#F038316400000080
(1736520238.894823) can0 174#E77F0000E18003CC
(1736520238.895089) can0 178#038008232F8103DE
(1736520238.895345) can0 17C#00000928DE9E03C5
(1736520238.897265) can0 205#CC006A520C000000
(1736520238.897521) can0 110#0C00000000000000
(1736520238.897765) can0 111#C901C8016F007B01
(1736520238.898030) can0 112#78017F0171017501
(1736520238.898298) can0 113#1200000038000000
(1736520238.898533) can0 310#FF306C038C020000
(1736520238.901943) can0 210#7080660D00200000
(1736520238.903049) can0 310#FF306C038C020000
(1736520238.903874) can0 305#05670007A900
(1736520238.904828) can0 174#EF7F0000E48004C4
(1736520238.904964) can0 178#EF7F000032810435
(1736520238.905352) can0 101#F038316400000080
(1736520238.905355) can0 17C#00000928D49E0499
(1736520238.907256) can0 113#1200000038000000
(1736520238.907534) can0 110#0C00000000000000
(1736520238.907743) can0 205#CC006A520C000000
(1736520238.908063) can0 310#FF306C038C020000
(1736520238.911890) can0 210#7080660D00200000
(1736520238.912818) can0 310#FF306C038C020000
(1736520238.913842) can0 305#056700079A00
(1736520238.914719) can0 174#F57F0000EA800501
(1736520238.914988) can0 178#E47F012034810538
(1736520238.915347) can0 17C#00000928CB9E051A
(1736520238.915982) can0 101#F038316400000080
(1736520238.917241) can0 113#1200000038000000
(1736520238.917543) can0 110#0C00000000000000
(1736520238.917670) can0 205#CC006A520C000000
(1736520238.918057) can0 310#FF306C038C020000
(1736520238.921871) can0 210#7080660D00200000
(1736520238.922744) can0 310#FF306C038C020000
(1736520238.923925) can0 305#056700078B00
(1736520238.925058) can0 174#FA7F0000EE80067C
(1736520238.925091) can0 178#E47F0000398106BA
(1736520238.925299) can0 17C#00000928CE9E06B4
(1736520238.927081) can0 101#F038316400000080
(1736520238.927122) can0 113#1200000038000000
(1736520238.927566) can0 110#0C00000000000000
(1736520238.927789) can0 205#CC006A520C000000
(1736520238.928140) can0 310#FF306C038C020000
(1736520238.931876) can0 210#7080660D00200000
(1736520238.932845) can0 310#FF306C038C020000
(1736520238.933850) can0 305#05670007FC00
(1736520238.934817) can0 174#F57F0000EE80073D
(1736520238.935044) can0 178#E77F010237810704
(1736520238.935331) can0 17C#00000928DC9E07B2
(1736520238.937187) can0 113#1200000038000000
(1736520238.937354) can0 110#0C00000000000000
(1736520238.937609) can0 205#CC006A520C000000
(1736520238.937839) can0 310#FF306C038D020000
(1736520238.937892) can0 101#F038316400000080
(1736520238.941844) can0 210#7080660D00200000
(1736520238.942781) can0 310#FF306C038C020000
(1736520238.943848) can0 305#05670007ED00
(1736520238.944824) can0 174#EF7F0000EA800851
(1736520238.945034) can0 178#F27F020F358108C0
(1736520238.945335) can0 17C#00000928ED9E08AE
(1736520238.947159) can0 113#1200000038000000
(1736520238.947396) can0 110#0C00000000000000
(1736520238.947590) can0 205#CC006A520C000000
(1736520238.947824) can0 310#FF306C038D020000
(1736520238.948746) can0 101#F038316400000080
(1736520238.951846) can0 210#7080660D00200000
(1736520238.952930) can0 310#FF306C038C020000
(1736520238.953788) can0 305#05670007DE00
(1736520238.954722) can0 174#EC7F0000E780092E
(1736520238.954983) can0 178#FD7F03133A81099A
(1736520238.955284) can0 17C#00000928FD9E09AB
(1736520238.957046) can0 113#1200000038000000
(1736520238.957316) can0 110#0C00000000000000
(1736520238.957561) can0 205#CC006A520C000000
(1736520238.957805) can0 310#FF306C038C020000
(1736520238.959519) can0 101#F038316400000080
(1736520238.961759) can0 210#7080660D00200000
(1736520238.962804) can0 310#FF306C038C020000
(1736520238.963776) can0 305#05670007CF00
(1736520238.964818) can0 174#F87F0000E3800ADF
(1736520238.964977) can0 178#038004033A810A32
(1736520238.965282) can0 17C#00000928039F0A41
(1736520238.967080) can0 113#1200000038000000
(1736520238.967370) can0 110#0C00000000000000
(1736520238.967629) can0 205#CC006A520C000000
(1736520238.967879) can0 310#FF306C038C020000
(1736520238.970305) can0 101#F038316400000080
(1736520238.971783) can0 210#7080660D00200000
(1736520238.972326) can0 206#D5CE782802000200
(1736520238.972790) can0 310#FF306C038C020000
(1736520238.973758) can0 305#056700073000
(1736520238.974734) can0 174#FA7F0000E3800B78
(1736520238.974998) can0 178#0080050835810B02
(1736520238.975280) can0 17C#00000928FB9E0B94
(1736520238.976993) can0 113#1200000038000000
(1736520238.977283) can0 110#0C00000000000000
(1736520238.977524) can0 205#C8006A620B000000
(1736520238.977781) can0 310#FF306C038C020000
(1736520238.981203) can0 101#F038316400000080
(1736520238.981772) can0 210#7080640E00200000
(1736520238.982824) can0 310#FF306C038C020000
(1736520238.983774) can0 305#056700072100
(1736520238.984724) can0 174#F87F0000EA800C12
(1736520238.984992) can0 178#FA7F062F37810C9A
(1736520238.985208) can0 17C#00000928F09E0C47
(1736520238.986998) can0 113#1200000038000000
(1736520238.987270) can0 110#0C00000000000000
(1736520238.987511) can0 205#C5006A820A000000
(1736520238.987780) can0 310#FF306C038C020000
(1736520238.991857) can0 210#7080630E00200000
(1736520238.992385) can0 101#F038316400000080
(1736520238.992888) can0 310#FF306C038C020000
(1736520238.993854) can0 305#056700071200
(1736520238.994803) can0 174#F57F0000F1800D71
(1736520238.995025) can0 178#F87F07053F810DAA
(1736520238.995335) can0 17C#00000928E79E0DC8
(1736520238.997108) can0 113#1200000038000000
(1736520238.997306) can0 110#0C00000000000000
(1736520238.997609) can0 111#CF01C80161007201
(1736520238.997866) can0 112#6A0180017A017601
(1736520238.998154) can0 205#C5006A820A000000
(1736520238.998372) can0 310#FF306C038C020000
(1736520239.001790) can0 210#7080630E00200000
(1736520239.002800) can0 310#FF306C038C020000
(1736520239.003064) can0 101#F038316400000080
(1736520239.003927) can0 305#056700070300
(1736520239.004732) can0 174#F57F0000EE800EC8
(1736520239.004986) can0 178#FA7F080E45810E2A
(1736520239.005299) can0 17C#00000928DC9E0E47
(1736520239.006932) can0 113#1200000038000000
(1736520239.007187) can0 110#0C00000000000000
(1736520239.007500) can0 205#C5006A820A000000
(1736520239.007820) can0 310#FF306C038C020000
(1736520239.011864) can0 210#7080630E00200000
(1736520239.012900) can0 310#FF306C038C020000
(1736520239.013859) can0 305#056700077400
(1736520239.014097) can0 101#F038316400000080
(1736520239.014931) can0 174#FA7F0000E1800F0F
(1736520239.015167) can0 178#0080090748810F11
(1736520239.015482) can0 17C#00000928D19E0FDF
(1736520239.016933) can0 113#1200000038000000
(1736520239.017196) can0 110#0C00000000000000
(1736520239.017533) can0 205#C5006A820A000000
(1736520239.017820) can0 310#FF306D038C020000
(1736520239.021777) can0 210#7080630E00200000
(1736520239.022821) can0 310#FF306D038C020000
(1736520239.023767) can0 305#056700076500
(1736520239.024761) can0 174#03800000D98000BF
(1736520239.024989) can0 178#FA7F0A09458100AC
(1736520239.025096) can0 101#F038316400000080
(1736520239.025281) can0 17C#00000928C89E00FF
(1736520239.026901) can0 113#1200000038000000
(1736520239.027159) can0 110#0C00000000000000
(1736520239.027577) can0 205#C5006A820A000000
(1736520239.027832) can0 310#FF306D038C020000
(1736520239.031751) can0 210#7080630E00200000
(1736520239.032811) can0 310#FF306D038C020000
(1736520239.033786) can0 305#056700075600
(1736520239.034766) can0 174#03800000DC80012B
(1736520239.034981) can0 178#FA7F0B0E3981016D
(1736520239.035283) can0 17C#00000928BE9E01AF
(1736520239.035980) can0 101#F038316400000080
(1736520239.036889) can0 110#0C00000000000000
(1736520239.037121) can0 113#1200000038000000
(1736520239.037582) can0 205#C5006A820A000000
(1736520239.037841) can0 310#FF306D038C020000
(1736520239.041819) can0 210#7080630E00200000
(1736520239.042929) can0 310#FF306D038C020000
(1736520239.043769) can0 305#056700074700
(1736520239.044892) can0 174#FA7F0000E4800207
(1736520239.045000) can0 178#FA7F0C053181026B
(1736520239.045292) can0 17C#00000928C19E0246
(1736520239.046914) can0 113#1200000038000000
(1736520239.047182) can0 110#0C00000000000000
(1736520239.047611) can0 205#C5006A820A000000
(1736520239.047877) can0 310#FF306D038C020000
(1736520239.048094) can0 101#F038316400000080
(1736520239.051744) can0 210#7080630E00200000
(1736520239.052873) can0 310#FF306D038C020000
(1736520239.053742) can0 305#05670007B800
(1736520239.054716) can0 174#EF7F0000E180031E
(1736520239.054981) can0 178#FD7F0D053281031E
(1736520239.055282) can0 17C#00000928D69E03C9
(1736520239.056878) can0 113#1200000038000000
(1736520239.057158) can0 110#0C00000000000000
(1736520239.057721) can0 205#C5006A820A000000
(1736520239.057992) can0 310#FF306D038C020000
(1736520239.059149) can0 101#F038316400000080
(1736520239.061746) can0 210#7080630E00200000
(1736520239.062874) can0 310#FF306D038C020000
(1736520239.063743) can0 305#05670007A900
(1736520239.064743) can0 174#E77F0000DE800431
(1736520239.064973) can0 178#03800E122E810491
(1736520239.065301) can0 17C#00000928D99E041C
(1736520239.066797) can0 113#1200000038000000
(1736520239.067107) can0 110#0C00000000000000
(1736520239.067739) can0 205#C5006A820A000000
(1736520239.067923) can0 310#FF306D038C020000
(1736520239.069949) can0 101#F038316400000080
(1736520239.071721) can0 210#7080630E00200000
(1736520239.072610) can0 206#EBCE7E2802000200
(1736520239.072893) can0 310#FF306D038C020000
(1736520239.073743) can0 305#056700079A00
(1736520239.074722) can0 174#E47F0000DE8005CB
(1736520239.074974) can0 178#0B800F09298105BD
(1736520239.075269) can0 17C#00000928C89E0596
(1736520239.076769) can0 113#1200000038000000
(1736520239.077016) can0 110#0C00000000000000
(1736520239.077797) can0 205#C1005B820A000000
(1736520239.078101) can0 310#FF306D038C020000
(1736520239.080959) can0 101#F038316400000080
(1736520239.081823) can0 210#7080610F00200000
(1736520239.082898) can0 310#FF306D038C020000
(1736520239.083812) can0 305#056700078B00
(1736520239.084816) can0 174#E47F0000EA8006C2
(1736520239.085067) can0 178#0880000E318106E1
(1736520239.085283) can0 17C#00000928B89E06F9
(1736520239.086777) can0 113#1200000038000000
(1736520239.087047) can0 110#0C00000000000000
(1736520239.087953) can0 205#BE004E820A000000
(1736520239.088007) can0 310#FF306D038C020000
(1736520239.091737) can0 210#70805F0F00200000
(1736520239.091957) can0 101#F038316400000080
(1736520239.092929) can0 310#FF306D038C020000
(1736520239.093744) can0 305#05670007FC00
(1736520239.094744) can0 174#E47F0000F88007C4
(1736520239.094999) can0 178#0080010739810749
(1736520239.095281) can0 17C#00000928BE9E07E1
(1736520239.096718) can0 113#1200000038000000
(1736520239.097082) can0 110#0C00000000000000
(1736520239.097334) can0 111#C301C1016C006E01
(1736520239.097585) can0 112#7001830172017701
(1736520239.097842) can0 205#BE004E820A000000
(1736520239.098089) can0 310#FF306D038C020000
(1736520239.101779) can0 210#70805F0F00200000
(1736520239.102881) can0 310#FF306D038C020000
(1736520239.102957) can0 101#F038316400000080
(1736520239.103844) can0 305#05670007ED00
(1736520239.104719) can0 174#E77F0000F8800898
(1736520239.104974) can0 178#EC7F022F37810831
(1736520239.105281) can0 17C#00000928C99E0898
(1736520239.106784) can0 113#1200000038000000
(1736520239.106956) can0 110#0C00000000000000
(1736520239.107864) can0 205#BE004E820A000000
(1736520239.108100) can0 310#FF306D038C020000
(1736520239.111830) can0 210#70805F0F00200000
(1736520239.113000) can0 310#FF306D038D020000
(1736520239.113739) can0 305#05670007DE00
(1736520239.114126) can0 101#F038316400000080
(1736520239.114752) can0 174#EF7F0000EA80094C
(1736520239.115198) can0 178#DC7F030735810945
(1736520239.115473) can0 17C#00000928D79E0994
(1736520239.116635) can0 113#1200000038000000
(1736520239.116922) can0 110#0C00000000000000
(1736520239.117879) can0 205#BE004E820A000000
(1736520239.118150) can0 310#FF306D038C020000
(1736520239.122012) can0 210#70805F0F00200000
(1736520239.123087) can0 310#FF306D038C020000
(1736520239.123836) can0 305#05670007CF00
(1736520239.124786) can0 174#F57F0000E7800A3F
(1736520239.124973) can0 178#D67F040D35810ABA
(1736520239.125283) can0 17C#00000928E49E0A17
(1736520239.125309) can0 101#F038316400000080
(1736520239.126667) can0 113#1200000038000000
(1736520239.126920) can0 110#0C00000000000000
(1736520239.127860) can0 205#BE004E820A000000
(1736520239.128080) can0 310#FF306D038D020000
(1736520239.131717) can0 210#70805F0F00200000
(1736520239.132926) can0 310#FF306D038C020000
(1736520239.133967) can0 305#056700073000
(1736520239.134946) can0 174#F57F0000EE800BA1
(1736520239.134999) can0 178#DC7F05022F810BDA
(1736520239.135343) can0 17C#00000928DE9E0B2D
(1736520239.136297) can0 101#F038316400000080
(1736520239.136766) can0 113#1200000038000000
(1736520239.136974) can0 110#0C00000000000000
(1736520239.137888) can0 205#BE004E820A000000
